# vsim -c "+UVM_VERBOSITY=UVM_HIGH" -voptargs="+acc" -assertdebug -debugDB -l log/onehot_test.log testbench -wlf waveform/onehot_test.wlf -do "log -r /*; run -all; quit" "+UVM_TESTNAME=onehot_test" 
# Start time: 17:34:31 on Sep 10,2025
# ** Note: (vsim-3812) Design is being optimized...
# ** Note: (vsim-8611) Generating debug db.
# //  Questa Sim-64
# //  Version 2021.2_1 linux_x86_64 May 15 2021
# //
# //  Copyright 1991-2021 Mentor Graphics Corporation
# //  All Rights Reserved.
# //
# //  QuestaSim and its associated documentation contain trade
# //  secrets and commercial or financial information that are the property of
# //  Mentor Graphics Corporation and are privileged, confidential,
# //  and exempt from disclosure under the Freedom of Information Act,
# //  5 U.S.C. Section 552. Furthermore, this information
# //  is prohibited from disclosure under the Trade Secrets Act,
# //  18 U.S.C. Section 1905.
# //
# Loading sv_std.std
# Loading work.apb_if(fast)
# Loading mtiUvm.uvm_pkg(fast)
# Loading work.apb_m_pkg(fast)
# Loading mtiUvm.questa_uvm_pkg(fast)
# Loading work.testbench(fast)
# Loading work.apb_if(fast__2)
# Loading work.interrupt_top(fast)
# Loading work.enable_write(fast)
# Loading work.interrupt_registers(fast)
# Loading work.out_reg(fast)
# Loading work.apb_slave(fast)
# Loading work.parity_check_ODD(fast)
# Loading work.parity_check_ODD(fast__1)
# Loading work.IRQn_input_unit(fast)
# Loading work.IRQ_function(fast)
# Loading work.negedge_detector(fast)
# Loading work.posedge_detector(fast)
# Loading work.low_level_detector(fast)
# Loading work.clear_irq_block(fast)
# Loading work.NMI_input_unit(fast)
# Loading work.priority_determination(fast)
# Loading work.max_priority_block(fast)
# Loading work.comparator_greater(fast)
# Loading work.max_comparator_block(fast)
# Loading work.select_mode(fast)
# Loading work.priority_default_block(fast)
# Loading work.interrupt_request_output(fast)
# Loading work.encoder_256_8(fast)
# Loading work.mux_256_1(fast)
# Loading /home/shared_folder/questasim/uvm-1.1d/linux_x86_64/uvm_dpi.so
# ** Note: (vsim-8900) Creating design debug database waveform/onehot_test.dbg.
# log -r /*
#  run -all
# ----------------------------------------------------------------
# UVM-1.1d
# (C) 2007-2013 Mentor Graphics Corporation
# (C) 2007-2013 Cadence Design Systems, Inc.
# (C) 2006-2013 Synopsys, Inc.
# (C) 2011-2013 Cypress Semiconductor Corp.
# ----------------------------------------------------------------
# 
#   ***********       IMPORTANT RELEASE NOTES         ************
# 
#   You are using a version of the UVM library that has been compiled
#   with `UVM_NO_DEPRECATED undefined.
#   See http://www.eda.org/svdb/view.php?id=3313 for more details.
# 
#   You are using a version of the UVM library that has been compiled
#   with `UVM_OBJECT_MUST_HAVE_CONSTRUCTOR undefined.
#   See http://www.eda.org/svdb/view.php?id=3770 for more details.
# 
#       (Specify +UVM_NO_RELNOTES to turn off this notice)
# 
# UVM_INFO verilog_src/questa_uvm_pkg-1.2/src/questa_uvm_pkg.sv(277) @ 0: reporter [Questa UVM] QUESTA_UVM-1.2.3
# UVM_INFO verilog_src/questa_uvm_pkg-1.2/src/questa_uvm_pkg.sv(278) @ 0: reporter [Questa UVM]  questa_uvm::init(+struct)
# Clock generation started at time 0
# Clock initialized to 0 at time 0
# Testbench: Starting UVM test at time 0
# UVM_INFO @ 0: reporter [RNTST] Running test onehot_test...
# UVM_INFO ../tests/base_test.sv(15) @ 0: uvm_test_top [TEST] BUILD PHASE
# UVM_INFO ../tests/base_test.sv(22) @ 0: uvm_test_top [TEST] CONFIGURATION
# --------------------------------------------------------
# Name           Type                     Size  Value     
# --------------------------------------------------------
# e_cfg          <unknown>                -     @487      
#   cfg          <unknown>                -     @488      
#     is_active  uvm_active_passive_enum  1     UVM_ACTIVE
#   has_scb      integral                 1     'h1       
# --------------------------------------------------------
# UVM_INFO ../tests/base_test.sv(30) @ 0: uvm_test_top [TEST] GOT VIF
# UVM_INFO ../tests/base_test.sv(33) @ 0: uvm_test_top [TEST] PASSING CFG & VIF to ENV
# UVM_INFO ../tests/onehot_test.sv(13) @ 0: uvm_test_top [onehot_test] Building one-hot test
# UVM_INFO ../model/Environment/system_env.sv(15) @ 0: uvm_test_top.env [ENV] BUILD PHASE
# UVM_INFO ../model/Environment/apb_m_agent.sv(14) @ 0: uvm_test_top.env.agent [AGNT] Constructor
# UVM_INFO ../model/Environment/system_env.sv(23) @ 0: uvm_test_top.env [ENV] GOT VIG
# UVM_INFO ../model/Environment/system_env.sv(30) @ 0: uvm_test_top.env [ENV] GOT ENV_CFG
# UVM_INFO ../model/Environment/system_env.sv(33) @ 0: uvm_test_top.env [ENV] PASSING CFG & VIF to AGNT
# UVM_INFO ../model/Environment/system_env.sv(39) @ 0: uvm_test_top.env [ENV] SCB ENABLED
# UVM_INFO ../model/Environment/scoreboard.sv(19) @ 0: uvm_test_top.env.scb [apb_scoreboard] Constructor
# UVM_INFO ../model/Environment/apb_m_monitor.sv(9) @ 0: uvm_test_top.env.agent.monitor [MON] Constructor
# UVM_INFO ../model/Environment/apb_m_agent.sv(29) @ 0: uvm_test_top.env.agent [AGNT] GOT AGENT CFG
# UVM_INFO ../model/Environment/apb_m_agent.sv(38) @ 0: uvm_test_top.env.agent [AGNT] UVM_ACTIVE
# UVM_INFO ../model/Environment/apb_m_driver.sv(9) @ 0: uvm_test_top.env.agent.driver [DRV] Constructor
# UVM_INFO ../model/Environment/apb_m_sequencer.sv(7) @ 0: uvm_test_top.env.agent.sequencer [apb_m_sequencer] Constructor
# UVM_INFO ../model/Environment/apb_m_agent.sv(50) @ 0: uvm_test_top.env.agent [AGNT] GOT VIF
# UVM_INFO ../model/Environment/apb_m_agent.sv(57) @ 0: uvm_test_top.env.agent [AGNT] BUILD PHASE
# UVM_INFO ../model/Environment/apb_m_driver.sv(14) @ 0: uvm_test_top.env.agent.driver [DRV] BUILD PHASE
# UVM_INFO ../model/Environment/apb_m_driver.sv(21) @ 0: uvm_test_top.env.agent.driver [DRV] GOT VIF
# UVM_INFO ../model/Environment/apb_m_driver.sv(27) @ 0: uvm_test_top.env.agent.driver [DRV] GET AGENT CFG
# UVM_INFO ../model/Environment/apb_m_monitor.sv(15) @ 0: uvm_test_top.env.agent.monitor [MON] BUILD PHASE
# UVM_INFO ../model/Environment/apb_m_monitor.sv(22) @ 0: uvm_test_top.env.agent.monitor [MON] GOT VIF
# UVM_INFO ../model/Environment/apb_m_monitor.sv(27) @ 0: uvm_test_top.env.agent.monitor [MON] GET AGENT CFG
# UVM_INFO ../model/Environment/apb_m_sequencer.sv(13) @ 0: uvm_test_top.env.agent.sequencer [apb_m_sequencer] Build phase
# UVM_INFO ../model/Environment/scoreboard.sv(25) @ 0: uvm_test_top.env.scb [apb_scoreboard] Build phase
# UVM_INFO ../model/Environment/apb_m_agent.sv(62) @ 0: uvm_test_top.env.agent [apb_m_agent] Connect phase
# UVM_INFO ../model/Environment/apb_m_agent.sv(65) @ 0: uvm_test_top.env.agent [AGENT] CONNECT DRIVE & SEQR
# UVM_INFO ../model/Environment/system_env.sv(48) @ 0: uvm_test_top.env [ENV] Connect phase
# UVM_INFO ../model/Environment/system_env.sv(50) @ 0: uvm_test_top.env [ENV] CONNECT MON & SCB PORT
# UVM_INFO ../tests/base_test.sv(40) @ 0: uvm_test_top [TEST] topology
# --------------------------------------------------------------
# Name                       Type                    Size  Value
# --------------------------------------------------------------
# uvm_test_top               onehot_test             -     @473 
#   env                      apb_m_env               -     @480 
#     agent                  apb_m_agent             -     @496 
#       driver               apb_m_driver            -     @543 
#         rsp_port           uvm_analysis_port       -     @558 
#         seq_item_port      uvm_seq_item_pull_port  -     @550 
#       monitor              apb_m_monitor           -     @527 
#         collected_port     uvm_analysis_port       -     @534 
#       sequencer            apb_m_sequencer         -     @566 
#         rsp_export         uvm_analysis_export     -     @573 
#         seq_item_export    uvm_seq_item_pull_imp   -     @667 
#         arbitration_queue  array                   0     -    
#         lock_queue         array                   0     -    
#         num_last_reqs      integral                32    'd1  
#         num_last_rsps      integral                32    'd1  
#     scb                    apb_scoreboard          -     @511 
#       analysis_port        uvm_analysis_imp        -     @518 
# --------------------------------------------------------------
# UVM_INFO verilog_src/questa_uvm_pkg-1.2/src/questa_uvm_pkg.sv(339) @ 0: reporter [Questa UVM] End Of Elaboration
# UVM_INFO ../tests/onehot_test.sv(21) @ 0: uvm_test_top [onehot_test] === Starting One-Hot Test ===
# UVM_INFO ../tests/onehot_test.sv(30) @ 0: uvm_test_top [onehot_test] Starting one-hot sequence execution
# UVM_INFO ../model/Environment/apb_m_monitor.sv(35) @ 0: uvm_test_top.env.agent.monitor [apb_m_monitor] Run phase
# UVM_INFO ../model/Environment/apb_m_driver.sv(35) @ 0: uvm_test_top.env.agent.driver [apb_m_driver] Run phase
# Waiting for transaction...
# UVM_INFO ../seq/onehot_seq.sv(13) @ 0: uvm_test_top.env.agent.sequencer@@onehot_sequence [onehot_seq] === Starting One-Hot Sequence Test ===
# UVM_INFO ../seq/base_seq.sv(18) @ 0: uvm_test_top.env.agent.sequencer@@onehot_sequence [onehot_seq] Sending reset transaction
# Starting reset transaction...
# Driving reset transaction - PRESETn = 0
# UVM_INFO ../model/Environment/apb_m_monitor.sv(44) @ 5000: uvm_test_top.env.agent.monitor [apb_m_monitor] Reset transaction detected
# UVM_INFO ../model/Environment/scoreboard.sv(31) @ 5000: uvm_test_top.env.scb [apb_scoreboard] RESET DETECTED
# Reset released - PRESETn = 1
# UVM_INFO ../model/Environment/apb_m_driver.sv(68) @ 25000: uvm_test_top.env.agent.driver [apb_m_driver] Reset transaction driven
# Waiting for transaction...
# UVM_INFO ../seq/base_seq.sv(21) @ 25000: uvm_test_top.env.agent.sequencer@@onehot_sequence [onehot_seq] Reset transaction sent
# UVM_INFO ../seq/base_seq.sv(18) @ 25000: uvm_test_top.env.agent.sequencer@@onehot_sequence [onehot_seq] Sending reset transaction
# Starting reset transaction...
# Driving reset transaction - PRESETn = 0
# Reset released - PRESETn = 1
# UVM_INFO ../model/Environment/apb_m_driver.sv(68) @ 55000: uvm_test_top.env.agent.driver [apb_m_driver] Reset transaction driven
# Waiting for transaction...
# UVM_INFO ../seq/base_seq.sv(21) @ 55000: uvm_test_top.env.agent.sequencer@@onehot_sequence [onehot_seq] Reset transaction sent
# Waiting for transaction...
# UVM_INFO ../model/Environment/apb_m_monitor.sv(76) @ 85000: uvm_test_top.env.agent.monitor [apb_m_monitor] Read transaction captured: addr=0x00090000, data=0x00000000
# UVM_INFO ../model/Environment/scoreboard.sv(62) @ 85000: uvm_test_top.env.scb [apb_scoreboard] READ: addr=0x00090000, data=0x00000000, read_count=1
# Waiting for transaction...
# UVM_INFO ../model/Environment/apb_m_monitor.sv(76) @ 115000: uvm_test_top.env.agent.monitor [apb_m_monitor] Read transaction captured: addr=0x00090004, data=0x00000000
# UVM_INFO ../model/Environment/scoreboard.sv(62) @ 115000: uvm_test_top.env.scb [apb_scoreboard] READ: addr=0x00090004, data=0x00000000, read_count=2
# Waiting for transaction...
# UVM_INFO ../model/Environment/apb_m_monitor.sv(76) @ 145000: uvm_test_top.env.agent.monitor [apb_m_monitor] Read transaction captured: addr=0x00090008, data=0x00000000
# UVM_INFO ../model/Environment/scoreboard.sv(62) @ 145000: uvm_test_top.env.scb [apb_scoreboard] READ: addr=0x00090008, data=0x00000000, read_count=3
# Waiting for transaction...
# UVM_INFO ../model/Environment/apb_m_monitor.sv(76) @ 175000: uvm_test_top.env.agent.monitor [apb_m_monitor] Read transaction captured: addr=0x0009000c, data=0x00000000
# UVM_INFO ../model/Environment/scoreboard.sv(62) @ 175000: uvm_test_top.env.scb [apb_scoreboard] READ: addr=0x0009000c, data=0x00000000, read_count=4
# Waiting for transaction...
# UVM_INFO ../model/Environment/apb_m_monitor.sv(76) @ 205000: uvm_test_top.env.agent.monitor [apb_m_monitor] Read transaction captured: addr=0x00090010, data=0x00000000
# UVM_INFO ../model/Environment/scoreboard.sv(62) @ 205000: uvm_test_top.env.scb [apb_scoreboard] READ: addr=0x00090010, data=0x00000000, read_count=5
# Waiting for transaction...
# UVM_INFO ../model/Environment/apb_m_monitor.sv(76) @ 235000: uvm_test_top.env.agent.monitor [apb_m_monitor] Read transaction captured: addr=0x00090014, data=0x00000000
# UVM_INFO ../model/Environment/scoreboard.sv(62) @ 235000: uvm_test_top.env.scb [apb_scoreboard] READ: addr=0x00090014, data=0x00000000, read_count=6
# Waiting for transaction...
# UVM_INFO ../model/Environment/apb_m_monitor.sv(76) @ 265000: uvm_test_top.env.agent.monitor [apb_m_monitor] Read transaction captured: addr=0x00090018, data=0x00000000
# UVM_INFO ../model/Environment/scoreboard.sv(62) @ 265000: uvm_test_top.env.scb [apb_scoreboard] READ: addr=0x00090018, data=0x00000000, read_count=7
# Waiting for transaction...
# UVM_INFO ../model/Environment/apb_m_monitor.sv(76) @ 295000: uvm_test_top.env.agent.monitor [apb_m_monitor] Read transaction captured: addr=0x0009001c, data=0x00000000
# UVM_INFO ../model/Environment/scoreboard.sv(62) @ 295000: uvm_test_top.env.scb [apb_scoreboard] READ: addr=0x0009001c, data=0x00000000, read_count=8
# Waiting for transaction...
# UVM_INFO ../model/Environment/apb_m_monitor.sv(76) @ 325000: uvm_test_top.env.agent.monitor [apb_m_monitor] Read transaction captured: addr=0x00090020, data=0x00000000
# UVM_INFO ../model/Environment/scoreboard.sv(62) @ 325000: uvm_test_top.env.scb [apb_scoreboard] READ: addr=0x00090020, data=0x00000000, read_count=9
# Waiting for transaction...
# UVM_INFO ../model/Environment/apb_m_monitor.sv(76) @ 355000: uvm_test_top.env.agent.monitor [apb_m_monitor] Read transaction captured: addr=0x00090024, data=0x00000000
# UVM_INFO ../model/Environment/scoreboard.sv(62) @ 355000: uvm_test_top.env.scb [apb_scoreboard] READ: addr=0x00090024, data=0x00000000, read_count=10
# Waiting for transaction...
# UVM_INFO ../model/Environment/apb_m_monitor.sv(76) @ 385000: uvm_test_top.env.agent.monitor [apb_m_monitor] Read transaction captured: addr=0x00090028, data=0x00000000
# UVM_INFO ../model/Environment/scoreboard.sv(62) @ 385000: uvm_test_top.env.scb [apb_scoreboard] READ: addr=0x00090028, data=0x00000000, read_count=11
# Waiting for transaction...
# UVM_INFO ../model/Environment/apb_m_monitor.sv(76) @ 415000: uvm_test_top.env.agent.monitor [apb_m_monitor] Read transaction captured: addr=0x0009002c, data=0x00000000
# UVM_INFO ../model/Environment/scoreboard.sv(62) @ 415000: uvm_test_top.env.scb [apb_scoreboard] READ: addr=0x0009002c, data=0x00000000, read_count=12
# Waiting for transaction...
# UVM_INFO ../model/Environment/apb_m_monitor.sv(76) @ 445000: uvm_test_top.env.agent.monitor [apb_m_monitor] Read transaction captured: addr=0x00090030, data=0x00000000
# UVM_INFO ../model/Environment/scoreboard.sv(62) @ 445000: uvm_test_top.env.scb [apb_scoreboard] READ: addr=0x00090030, data=0x00000000, read_count=13
# Waiting for transaction...
# UVM_INFO ../model/Environment/apb_m_monitor.sv(76) @ 475000: uvm_test_top.env.agent.monitor [apb_m_monitor] Read transaction captured: addr=0x00090034, data=0x00000000
# UVM_INFO ../model/Environment/scoreboard.sv(62) @ 475000: uvm_test_top.env.scb [apb_scoreboard] READ: addr=0x00090034, data=0x00000000, read_count=14
# Waiting for transaction...
# UVM_INFO ../model/Environment/apb_m_monitor.sv(76) @ 505000: uvm_test_top.env.agent.monitor [apb_m_monitor] Read transaction captured: addr=0x00090038, data=0x00000000
# UVM_INFO ../model/Environment/scoreboard.sv(62) @ 505000: uvm_test_top.env.scb [apb_scoreboard] READ: addr=0x00090038, data=0x00000000, read_count=15
# Waiting for transaction...
# UVM_INFO ../model/Environment/apb_m_monitor.sv(76) @ 535000: uvm_test_top.env.agent.monitor [apb_m_monitor] Read transaction captured: addr=0x0009003c, data=0x00000000
# UVM_INFO ../model/Environment/scoreboard.sv(62) @ 535000: uvm_test_top.env.scb [apb_scoreboard] READ: addr=0x0009003c, data=0x00000000, read_count=16
# Waiting for transaction...
# UVM_INFO ../model/Environment/apb_m_monitor.sv(76) @ 565000: uvm_test_top.env.agent.monitor [apb_m_monitor] Read transaction captured: addr=0x00090040, data=0x00000000
# UVM_INFO ../model/Environment/scoreboard.sv(62) @ 565000: uvm_test_top.env.scb [apb_scoreboard] READ: addr=0x00090040, data=0x00000000, read_count=17
# Waiting for transaction...
# UVM_INFO ../model/Environment/apb_m_monitor.sv(76) @ 595000: uvm_test_top.env.agent.monitor [apb_m_monitor] Read transaction captured: addr=0x00090044, data=0x00000000
# UVM_INFO ../model/Environment/scoreboard.sv(62) @ 595000: uvm_test_top.env.scb [apb_scoreboard] READ: addr=0x00090044, data=0x00000000, read_count=18
# Waiting for transaction...
# UVM_INFO ../model/Environment/apb_m_monitor.sv(76) @ 625000: uvm_test_top.env.agent.monitor [apb_m_monitor] Read transaction captured: addr=0x00090048, data=0x00000000
# UVM_INFO ../model/Environment/scoreboard.sv(62) @ 625000: uvm_test_top.env.scb [apb_scoreboard] READ: addr=0x00090048, data=0x00000000, read_count=19
# Waiting for transaction...
# UVM_INFO ../model/Environment/apb_m_monitor.sv(76) @ 655000: uvm_test_top.env.agent.monitor [apb_m_monitor] Read transaction captured: addr=0x0009004c, data=0x00000000
# UVM_INFO ../model/Environment/scoreboard.sv(62) @ 655000: uvm_test_top.env.scb [apb_scoreboard] READ: addr=0x0009004c, data=0x00000000, read_count=20
# UVM_INFO ../model/Environment/scoreboard.sv(99) @ 655000: uvm_test_top.env.scb [SCB READ] Addr:0x00090000 Data:00000000
# UVM_INFO ../model/Environment/scoreboard.sv(99) @ 655000: uvm_test_top.env.scb [SCB READ] Addr:0x00090004 Data:00000000
# UVM_INFO ../model/Environment/scoreboard.sv(99) @ 655000: uvm_test_top.env.scb [SCB READ] Addr:0x00090008 Data:00000000
# UVM_INFO ../model/Environment/scoreboard.sv(99) @ 655000: uvm_test_top.env.scb [SCB READ] Addr:0x0009000c Data:00000000
# UVM_INFO ../model/Environment/scoreboard.sv(99) @ 655000: uvm_test_top.env.scb [SCB READ] Addr:0x00090010 Data:00000000
# UVM_INFO ../model/Environment/scoreboard.sv(99) @ 655000: uvm_test_top.env.scb [SCB READ] Addr:0x00090014 Data:00000000
# UVM_INFO ../model/Environment/scoreboard.sv(99) @ 655000: uvm_test_top.env.scb [SCB READ] Addr:0x00090018 Data:00000000
# UVM_INFO ../model/Environment/scoreboard.sv(99) @ 655000: uvm_test_top.env.scb [SCB READ] Addr:0x0009001c Data:00000000
# UVM_INFO ../model/Environment/scoreboard.sv(99) @ 655000: uvm_test_top.env.scb [SCB READ] Addr:0x00090020 Data:00000000
# UVM_INFO ../model/Environment/scoreboard.sv(99) @ 655000: uvm_test_top.env.scb [SCB READ] Addr:0x00090024 Data:00000000
# UVM_INFO ../model/Environment/scoreboard.sv(99) @ 655000: uvm_test_top.env.scb [SCB READ] Addr:0x00090028 Data:00000000
# UVM_INFO ../model/Environment/scoreboard.sv(99) @ 655000: uvm_test_top.env.scb [SCB READ] Addr:0x0009002c Data:00000000
# UVM_INFO ../model/Environment/scoreboard.sv(99) @ 655000: uvm_test_top.env.scb [SCB READ] Addr:0x00090030 Data:00000000
# UVM_INFO ../model/Environment/scoreboard.sv(99) @ 655000: uvm_test_top.env.scb [SCB READ] Addr:0x00090034 Data:00000000
# UVM_INFO ../model/Environment/scoreboard.sv(99) @ 655000: uvm_test_top.env.scb [SCB READ] Addr:0x00090038 Data:00000000
# UVM_INFO ../model/Environment/scoreboard.sv(99) @ 655000: uvm_test_top.env.scb [SCB READ] Addr:0x0009003c Data:00000000
# UVM_INFO ../model/Environment/scoreboard.sv(99) @ 655000: uvm_test_top.env.scb [SCB READ] Addr:0x00090040 Data:00000000
# UVM_INFO ../model/Environment/scoreboard.sv(99) @ 655000: uvm_test_top.env.scb [SCB READ] Addr:0x00090044 Data:00000000
# UVM_INFO ../model/Environment/scoreboard.sv(99) @ 655000: uvm_test_top.env.scb [SCB READ] Addr:0x00090048 Data:00000000
# UVM_INFO ../model/Environment/scoreboard.sv(99) @ 655000: uvm_test_top.env.scb [SCB READ] Addr:0x0009004c Data:00000000
# Waiting for transaction...
# UVM_INFO ../model/Environment/apb_m_monitor.sv(76) @ 685000: uvm_test_top.env.agent.monitor [apb_m_monitor] Read transaction captured: addr=0x00090001, data=0x00000000
# UVM_WARNING ../model/Environment/apb_m_monitor.sv(82) @ 685000: uvm_test_top.env.agent.monitor [apb_m_monitor] Slave error detected during transaction
# UVM_INFO ../model/Environment/scoreboard.sv(62) @ 685000: uvm_test_top.env.scb [apb_scoreboard] READ: addr=0x00090001, data=0x00000000, read_count=21
# UVM_ERROR ../model/Environment/scoreboard.sv(69) @ 685000: uvm_test_top.env.scb [apb_scoreboard] PSLVERR ERROR addr=0x00090001
# UVM_ERROR ../model/Environment/scoreboard.sv(89) @ 685000: uvm_test_top.env.scb [apb_scoreboard] Invalid range READ addr=0x00090001 (ignored)
# Waiting for transaction...
# UVM_INFO ../model/Environment/apb_m_monitor.sv(76) @ 715000: uvm_test_top.env.agent.monitor [apb_m_monitor] Read transaction captured: addr=0x00090003, data=0x00000000
# UVM_WARNING ../model/Environment/apb_m_monitor.sv(82) @ 715000: uvm_test_top.env.agent.monitor [apb_m_monitor] Slave error detected during transaction
# UVM_INFO ../model/Environment/scoreboard.sv(62) @ 715000: uvm_test_top.env.scb [apb_scoreboard] READ: addr=0x00090003, data=0x00000000, read_count=22
# UVM_ERROR ../model/Environment/scoreboard.sv(69) @ 715000: uvm_test_top.env.scb [apb_scoreboard] PSLVERR ERROR addr=0x00090003
# UVM_ERROR ../model/Environment/scoreboard.sv(89) @ 715000: uvm_test_top.env.scb [apb_scoreboard] Invalid range READ addr=0x00090003 (ignored)
# Waiting for transaction...
# UVM_INFO ../model/Environment/apb_m_monitor.sv(76) @ 745000: uvm_test_top.env.agent.monitor [apb_m_monitor] Read transaction captured: addr=0x00090005, data=0x00000000
# UVM_WARNING ../model/Environment/apb_m_monitor.sv(82) @ 745000: uvm_test_top.env.agent.monitor [apb_m_monitor] Slave error detected during transaction
# UVM_INFO ../model/Environment/scoreboard.sv(62) @ 745000: uvm_test_top.env.scb [apb_scoreboard] READ: addr=0x00090005, data=0x00000000, read_count=23
# UVM_ERROR ../model/Environment/scoreboard.sv(69) @ 745000: uvm_test_top.env.scb [apb_scoreboard] PSLVERR ERROR addr=0x00090005
# UVM_ERROR ../model/Environment/scoreboard.sv(89) @ 745000: uvm_test_top.env.scb [apb_scoreboard] Invalid range READ addr=0x00090005 (ignored)
# Waiting for transaction...
# UVM_INFO ../model/Environment/apb_m_monitor.sv(76) @ 775000: uvm_test_top.env.agent.monitor [apb_m_monitor] Read transaction captured: addr=0x00090050, data=0x00000000
# UVM_INFO ../model/Environment/scoreboard.sv(62) @ 775000: uvm_test_top.env.scb [apb_scoreboard] READ: addr=0x00090050, data=0x00000000, read_count=24
# Waiting for transaction...
# UVM_INFO ../model/Environment/apb_m_monitor.sv(76) @ 805000: uvm_test_top.env.agent.monitor [apb_m_monitor] Read transaction captured: addr=0x00090054, data=0x00000000
# UVM_INFO ../model/Environment/scoreboard.sv(62) @ 805000: uvm_test_top.env.scb [apb_scoreboard] READ: addr=0x00090054, data=0x00000000, read_count=25
# Waiting for transaction...
# UVM_INFO ../model/Environment/apb_m_monitor.sv(76) @ 835000: uvm_test_top.env.agent.monitor [apb_m_monitor] Read transaction captured: addr=0x00090058, data=0x00000000
# UVM_INFO ../model/Environment/scoreboard.sv(62) @ 835000: uvm_test_top.env.scb [apb_scoreboard] READ: addr=0x00090058, data=0x00000000, read_count=26
# Waiting for transaction...
# UVM_INFO ../model/Environment/apb_m_monitor.sv(76) @ 865000: uvm_test_top.env.agent.monitor [apb_m_monitor] Read transaction captured: addr=0x000a0000, data=0x00000000
# UVM_WARNING ../model/Environment/apb_m_monitor.sv(82) @ 865000: uvm_test_top.env.agent.monitor [apb_m_monitor] Slave error detected during transaction
# UVM_INFO ../model/Environment/scoreboard.sv(62) @ 865000: uvm_test_top.env.scb [apb_scoreboard] READ: addr=0x000a0000, data=0x00000000, read_count=27
# UVM_ERROR ../model/Environment/scoreboard.sv(69) @ 865000: uvm_test_top.env.scb [apb_scoreboard] PSLVERR ERROR addr=0x000a0000
# UVM_ERROR ../model/Environment/scoreboard.sv(89) @ 865000: uvm_test_top.env.scb [apb_scoreboard] Invalid range READ addr=0x000a0000 (ignored)
# Waiting for transaction...
# UVM_INFO ../model/Environment/apb_m_monitor.sv(76) @ 895000: uvm_test_top.env.agent.monitor [apb_m_monitor] Read transaction captured: addr=0x000a0004, data=0x00000000
# UVM_WARNING ../model/Environment/apb_m_monitor.sv(82) @ 895000: uvm_test_top.env.agent.monitor [apb_m_monitor] Slave error detected during transaction
# UVM_INFO ../model/Environment/scoreboard.sv(62) @ 895000: uvm_test_top.env.scb [apb_scoreboard] READ: addr=0x000a0004, data=0x00000000, read_count=28
# UVM_ERROR ../model/Environment/scoreboard.sv(69) @ 895000: uvm_test_top.env.scb [apb_scoreboard] PSLVERR ERROR addr=0x000a0004
# UVM_ERROR ../model/Environment/scoreboard.sv(89) @ 895000: uvm_test_top.env.scb [apb_scoreboard] Invalid range READ addr=0x000a0004 (ignored)
# Waiting for transaction...
# UVM_INFO ../model/Environment/apb_m_monitor.sv(76) @ 925000: uvm_test_top.env.agent.monitor [apb_m_monitor] Read transaction captured: addr=0x000a0008, data=0x00000000
# UVM_WARNING ../model/Environment/apb_m_monitor.sv(82) @ 925000: uvm_test_top.env.agent.monitor [apb_m_monitor] Slave error detected during transaction
# UVM_INFO ../model/Environment/scoreboard.sv(62) @ 925000: uvm_test_top.env.scb [apb_scoreboard] READ: addr=0x000a0008, data=0x00000000, read_count=29
# UVM_ERROR ../model/Environment/scoreboard.sv(69) @ 925000: uvm_test_top.env.scb [apb_scoreboard] PSLVERR ERROR addr=0x000a0008
# UVM_ERROR ../model/Environment/scoreboard.sv(89) @ 925000: uvm_test_top.env.scb [apb_scoreboard] Invalid range READ addr=0x000a0008 (ignored)
# UVM_INFO ../seq/base_seq.sv(38) @ 925000: uvm_test_top.env.agent.sequencer@@onehot_sequence [onehot_seq] Sending write transaction - ADDR: 0x00090000, DATA: 0x00000001, STRB: 0xf
# Waiting for transaction...
# UVM_INFO ../model/Environment/apb_m_monitor.sv(73) @ 955000: uvm_test_top.env.agent.monitor [apb_m_monitor] Write transaction captured: addr=0x00090000, data=0x00000001, strb=0xf
# UVM_INFO ../model/Environment/scoreboard.sv(36) @ 955000: uvm_test_top.env.scb [apb_scoreboard] WRITE: addr=0x00090000, data=0x00000001, strb=0xf, write_count=1
# Waiting for transaction...
# UVM_INFO ../model/Environment/apb_m_monitor.sv(76) @ 985000: uvm_test_top.env.agent.monitor [apb_m_monitor] Read transaction captured: addr=0x00090000, data=0x00000000
# UVM_INFO ../model/Environment/scoreboard.sv(62) @ 985000: uvm_test_top.env.scb [apb_scoreboard] READ: addr=0x00090000, data=0x00000000, read_count=30
# UVM_INFO ../seq/base_seq.sv(38) @ 985000: uvm_test_top.env.agent.sequencer@@onehot_sequence [onehot_seq] Sending write transaction - ADDR: 0x00090000, DATA: 0x00000002, STRB: 0xf
# Waiting for transaction...
# UVM_INFO ../model/Environment/apb_m_monitor.sv(73) @ 1015000: uvm_test_top.env.agent.monitor [apb_m_monitor] Write transaction captured: addr=0x00090000, data=0x00000002, strb=0xf
# UVM_INFO ../model/Environment/scoreboard.sv(36) @ 1015000: uvm_test_top.env.scb [apb_scoreboard] WRITE: addr=0x00090000, data=0x00000002, strb=0xf, write_count=2
# Waiting for transaction...
# UVM_INFO ../model/Environment/apb_m_monitor.sv(76) @ 1045000: uvm_test_top.env.agent.monitor [apb_m_monitor] Read transaction captured: addr=0x00090000, data=0x00000000
# UVM_INFO ../model/Environment/scoreboard.sv(62) @ 1045000: uvm_test_top.env.scb [apb_scoreboard] READ: addr=0x00090000, data=0x00000000, read_count=31
# UVM_INFO ../seq/base_seq.sv(38) @ 1045000: uvm_test_top.env.agent.sequencer@@onehot_sequence [onehot_seq] Sending write transaction - ADDR: 0x00090000, DATA: 0x00000004, STRB: 0xf
# Waiting for transaction...
# UVM_INFO ../model/Environment/apb_m_monitor.sv(73) @ 1075000: uvm_test_top.env.agent.monitor [apb_m_monitor] Write transaction captured: addr=0x00090000, data=0x00000004, strb=0xf
# UVM_INFO ../model/Environment/scoreboard.sv(36) @ 1075000: uvm_test_top.env.scb [apb_scoreboard] WRITE: addr=0x00090000, data=0x00000004, strb=0xf, write_count=3
# Waiting for transaction...
# UVM_INFO ../model/Environment/apb_m_monitor.sv(76) @ 1105000: uvm_test_top.env.agent.monitor [apb_m_monitor] Read transaction captured: addr=0x00090000, data=0x00000000
# UVM_INFO ../model/Environment/scoreboard.sv(62) @ 1105000: uvm_test_top.env.scb [apb_scoreboard] READ: addr=0x00090000, data=0x00000000, read_count=32
# UVM_INFO ../seq/base_seq.sv(38) @ 1105000: uvm_test_top.env.agent.sequencer@@onehot_sequence [onehot_seq] Sending write transaction - ADDR: 0x00090000, DATA: 0x00000008, STRB: 0xf
# Waiting for transaction...
# UVM_INFO ../model/Environment/apb_m_monitor.sv(73) @ 1135000: uvm_test_top.env.agent.monitor [apb_m_monitor] Write transaction captured: addr=0x00090000, data=0x00000008, strb=0xf
# UVM_INFO ../model/Environment/scoreboard.sv(36) @ 1135000: uvm_test_top.env.scb [apb_scoreboard] WRITE: addr=0x00090000, data=0x00000008, strb=0xf, write_count=4
# Waiting for transaction...
# UVM_INFO ../model/Environment/apb_m_monitor.sv(76) @ 1165000: uvm_test_top.env.agent.monitor [apb_m_monitor] Read transaction captured: addr=0x00090000, data=0x00000008
# UVM_INFO ../model/Environment/scoreboard.sv(62) @ 1165000: uvm_test_top.env.scb [apb_scoreboard] READ: addr=0x00090000, data=0x00000008, read_count=33
# UVM_INFO ../seq/base_seq.sv(38) @ 1165000: uvm_test_top.env.agent.sequencer@@onehot_sequence [onehot_seq] Sending write transaction - ADDR: 0x00090000, DATA: 0x00000010, STRB: 0xf
# Waiting for transaction...
# UVM_INFO ../model/Environment/apb_m_monitor.sv(73) @ 1195000: uvm_test_top.env.agent.monitor [apb_m_monitor] Write transaction captured: addr=0x00090000, data=0x00000010, strb=0xf
# UVM_INFO ../model/Environment/scoreboard.sv(36) @ 1195000: uvm_test_top.env.scb [apb_scoreboard] WRITE: addr=0x00090000, data=0x00000010, strb=0xf, write_count=5
# Waiting for transaction...
# UVM_INFO ../model/Environment/apb_m_monitor.sv(76) @ 1225000: uvm_test_top.env.agent.monitor [apb_m_monitor] Read transaction captured: addr=0x00090000, data=0x00000010
# UVM_INFO ../model/Environment/scoreboard.sv(62) @ 1225000: uvm_test_top.env.scb [apb_scoreboard] READ: addr=0x00090000, data=0x00000010, read_count=34
# UVM_INFO ../seq/base_seq.sv(38) @ 1225000: uvm_test_top.env.agent.sequencer@@onehot_sequence [onehot_seq] Sending write transaction - ADDR: 0x00090000, DATA: 0x00000020, STRB: 0xf
# Waiting for transaction...
# UVM_INFO ../model/Environment/apb_m_monitor.sv(73) @ 1255000: uvm_test_top.env.agent.monitor [apb_m_monitor] Write transaction captured: addr=0x00090000, data=0x00000020, strb=0xf
# UVM_INFO ../model/Environment/scoreboard.sv(36) @ 1255000: uvm_test_top.env.scb [apb_scoreboard] WRITE: addr=0x00090000, data=0x00000020, strb=0xf, write_count=6
# Waiting for transaction...
# UVM_INFO ../model/Environment/apb_m_monitor.sv(76) @ 1285000: uvm_test_top.env.agent.monitor [apb_m_monitor] Read transaction captured: addr=0x00090000, data=0x00000020
# UVM_INFO ../model/Environment/scoreboard.sv(62) @ 1285000: uvm_test_top.env.scb [apb_scoreboard] READ: addr=0x00090000, data=0x00000020, read_count=35
# UVM_INFO ../seq/base_seq.sv(38) @ 1285000: uvm_test_top.env.agent.sequencer@@onehot_sequence [onehot_seq] Sending write transaction - ADDR: 0x00090000, DATA: 0x00000040, STRB: 0xf
# Waiting for transaction...
# UVM_INFO ../model/Environment/apb_m_monitor.sv(73) @ 1315000: uvm_test_top.env.agent.monitor [apb_m_monitor] Write transaction captured: addr=0x00090000, data=0x00000040, strb=0xf
# UVM_INFO ../model/Environment/scoreboard.sv(36) @ 1315000: uvm_test_top.env.scb [apb_scoreboard] WRITE: addr=0x00090000, data=0x00000040, strb=0xf, write_count=7
# Waiting for transaction...
# UVM_INFO ../model/Environment/apb_m_monitor.sv(76) @ 1345000: uvm_test_top.env.agent.monitor [apb_m_monitor] Read transaction captured: addr=0x00090000, data=0x00000000
# UVM_INFO ../model/Environment/scoreboard.sv(62) @ 1345000: uvm_test_top.env.scb [apb_scoreboard] READ: addr=0x00090000, data=0x00000000, read_count=36
# UVM_INFO ../seq/base_seq.sv(38) @ 1345000: uvm_test_top.env.agent.sequencer@@onehot_sequence [onehot_seq] Sending write transaction - ADDR: 0x00090000, DATA: 0x00000080, STRB: 0xf
# Waiting for transaction...
# UVM_INFO ../model/Environment/apb_m_monitor.sv(73) @ 1375000: uvm_test_top.env.agent.monitor [apb_m_monitor] Write transaction captured: addr=0x00090000, data=0x00000080, strb=0xf
# UVM_INFO ../model/Environment/scoreboard.sv(36) @ 1375000: uvm_test_top.env.scb [apb_scoreboard] WRITE: addr=0x00090000, data=0x00000080, strb=0xf, write_count=8
# Waiting for transaction...
# UVM_INFO ../model/Environment/apb_m_monitor.sv(76) @ 1405000: uvm_test_top.env.agent.monitor [apb_m_monitor] Read transaction captured: addr=0x00090000, data=0x00000000
# UVM_INFO ../model/Environment/scoreboard.sv(62) @ 1405000: uvm_test_top.env.scb [apb_scoreboard] READ: addr=0x00090000, data=0x00000000, read_count=37
# UVM_INFO ../seq/base_seq.sv(38) @ 1405000: uvm_test_top.env.agent.sequencer@@onehot_sequence [onehot_seq] Sending write transaction - ADDR: 0x00090000, DATA: 0x00000100, STRB: 0xf
# Waiting for transaction...
# UVM_INFO ../model/Environment/apb_m_monitor.sv(73) @ 1435000: uvm_test_top.env.agent.monitor [apb_m_monitor] Write transaction captured: addr=0x00090000, data=0x00000100, strb=0xf
# UVM_INFO ../model/Environment/scoreboard.sv(36) @ 1435000: uvm_test_top.env.scb [apb_scoreboard] WRITE: addr=0x00090000, data=0x00000100, strb=0xf, write_count=9
# Waiting for transaction...
# UVM_INFO ../model/Environment/apb_m_monitor.sv(76) @ 1465000: uvm_test_top.env.agent.monitor [apb_m_monitor] Read transaction captured: addr=0x00090000, data=0x00000000
# UVM_INFO ../model/Environment/scoreboard.sv(62) @ 1465000: uvm_test_top.env.scb [apb_scoreboard] READ: addr=0x00090000, data=0x00000000, read_count=38
# UVM_INFO ../seq/base_seq.sv(38) @ 1465000: uvm_test_top.env.agent.sequencer@@onehot_sequence [onehot_seq] Sending write transaction - ADDR: 0x00090000, DATA: 0x00000200, STRB: 0xf
# Waiting for transaction...
# UVM_INFO ../model/Environment/apb_m_monitor.sv(73) @ 1495000: uvm_test_top.env.agent.monitor [apb_m_monitor] Write transaction captured: addr=0x00090000, data=0x00000200, strb=0xf
# UVM_INFO ../model/Environment/scoreboard.sv(36) @ 1495000: uvm_test_top.env.scb [apb_scoreboard] WRITE: addr=0x00090000, data=0x00000200, strb=0xf, write_count=10
# Waiting for transaction...
# UVM_INFO ../model/Environment/apb_m_monitor.sv(76) @ 1525000: uvm_test_top.env.agent.monitor [apb_m_monitor] Read transaction captured: addr=0x00090000, data=0x00000000
# UVM_INFO ../model/Environment/scoreboard.sv(62) @ 1525000: uvm_test_top.env.scb [apb_scoreboard] READ: addr=0x00090000, data=0x00000000, read_count=39
# UVM_INFO ../seq/base_seq.sv(38) @ 1525000: uvm_test_top.env.agent.sequencer@@onehot_sequence [onehot_seq] Sending write transaction - ADDR: 0x00090000, DATA: 0x00000400, STRB: 0xf
# Waiting for transaction...
# UVM_INFO ../model/Environment/apb_m_monitor.sv(73) @ 1555000: uvm_test_top.env.agent.monitor [apb_m_monitor] Write transaction captured: addr=0x00090000, data=0x00000400, strb=0xf
# UVM_INFO ../model/Environment/scoreboard.sv(36) @ 1555000: uvm_test_top.env.scb [apb_scoreboard] WRITE: addr=0x00090000, data=0x00000400, strb=0xf, write_count=11
# Waiting for transaction...
# UVM_INFO ../model/Environment/apb_m_monitor.sv(76) @ 1585000: uvm_test_top.env.agent.monitor [apb_m_monitor] Read transaction captured: addr=0x00090000, data=0x00000000
# UVM_INFO ../model/Environment/scoreboard.sv(62) @ 1585000: uvm_test_top.env.scb [apb_scoreboard] READ: addr=0x00090000, data=0x00000000, read_count=40
# UVM_INFO ../seq/base_seq.sv(38) @ 1585000: uvm_test_top.env.agent.sequencer@@onehot_sequence [onehot_seq] Sending write transaction - ADDR: 0x00090000, DATA: 0x00000800, STRB: 0xf
# Waiting for transaction...
# UVM_INFO ../model/Environment/apb_m_monitor.sv(73) @ 1615000: uvm_test_top.env.agent.monitor [apb_m_monitor] Write transaction captured: addr=0x00090000, data=0x00000800, strb=0xf
# UVM_INFO ../model/Environment/scoreboard.sv(36) @ 1615000: uvm_test_top.env.scb [apb_scoreboard] WRITE: addr=0x00090000, data=0x00000800, strb=0xf, write_count=12
# Waiting for transaction...
# UVM_INFO ../model/Environment/apb_m_monitor.sv(76) @ 1645000: uvm_test_top.env.agent.monitor [apb_m_monitor] Read transaction captured: addr=0x00090000, data=0x00000000
# UVM_INFO ../model/Environment/scoreboard.sv(62) @ 1645000: uvm_test_top.env.scb [apb_scoreboard] READ: addr=0x00090000, data=0x00000000, read_count=41
# UVM_INFO ../seq/base_seq.sv(38) @ 1645000: uvm_test_top.env.agent.sequencer@@onehot_sequence [onehot_seq] Sending write transaction - ADDR: 0x00090000, DATA: 0x00001000, STRB: 0xf
# Waiting for transaction...
# UVM_INFO ../model/Environment/apb_m_monitor.sv(73) @ 1675000: uvm_test_top.env.agent.monitor [apb_m_monitor] Write transaction captured: addr=0x00090000, data=0x00001000, strb=0xf
# UVM_INFO ../model/Environment/scoreboard.sv(36) @ 1675000: uvm_test_top.env.scb [apb_scoreboard] WRITE: addr=0x00090000, data=0x00001000, strb=0xf, write_count=13
# Waiting for transaction...
# UVM_INFO ../model/Environment/apb_m_monitor.sv(76) @ 1705000: uvm_test_top.env.agent.monitor [apb_m_monitor] Read transaction captured: addr=0x00090000, data=0x00000000
# UVM_INFO ../model/Environment/scoreboard.sv(62) @ 1705000: uvm_test_top.env.scb [apb_scoreboard] READ: addr=0x00090000, data=0x00000000, read_count=42
# UVM_INFO ../seq/base_seq.sv(38) @ 1705000: uvm_test_top.env.agent.sequencer@@onehot_sequence [onehot_seq] Sending write transaction - ADDR: 0x00090000, DATA: 0x00002000, STRB: 0xf
# Waiting for transaction...
# UVM_INFO ../model/Environment/apb_m_monitor.sv(73) @ 1735000: uvm_test_top.env.agent.monitor [apb_m_monitor] Write transaction captured: addr=0x00090000, data=0x00002000, strb=0xf
# UVM_INFO ../model/Environment/scoreboard.sv(36) @ 1735000: uvm_test_top.env.scb [apb_scoreboard] WRITE: addr=0x00090000, data=0x00002000, strb=0xf, write_count=14
# Waiting for transaction...
# UVM_INFO ../model/Environment/apb_m_monitor.sv(76) @ 1765000: uvm_test_top.env.agent.monitor [apb_m_monitor] Read transaction captured: addr=0x00090000, data=0x00000000
# UVM_INFO ../model/Environment/scoreboard.sv(62) @ 1765000: uvm_test_top.env.scb [apb_scoreboard] READ: addr=0x00090000, data=0x00000000, read_count=43
# UVM_INFO ../seq/base_seq.sv(38) @ 1765000: uvm_test_top.env.agent.sequencer@@onehot_sequence [onehot_seq] Sending write transaction - ADDR: 0x00090000, DATA: 0x00004000, STRB: 0xf
# Waiting for transaction...
# UVM_INFO ../model/Environment/apb_m_monitor.sv(73) @ 1795000: uvm_test_top.env.agent.monitor [apb_m_monitor] Write transaction captured: addr=0x00090000, data=0x00004000, strb=0xf
# UVM_INFO ../model/Environment/scoreboard.sv(36) @ 1795000: uvm_test_top.env.scb [apb_scoreboard] WRITE: addr=0x00090000, data=0x00004000, strb=0xf, write_count=15
# Waiting for transaction...
# UVM_INFO ../model/Environment/apb_m_monitor.sv(76) @ 1825000: uvm_test_top.env.agent.monitor [apb_m_monitor] Read transaction captured: addr=0x00090000, data=0x00000000
# UVM_INFO ../model/Environment/scoreboard.sv(62) @ 1825000: uvm_test_top.env.scb [apb_scoreboard] READ: addr=0x00090000, data=0x00000000, read_count=44
# UVM_INFO ../seq/base_seq.sv(38) @ 1825000: uvm_test_top.env.agent.sequencer@@onehot_sequence [onehot_seq] Sending write transaction - ADDR: 0x00090000, DATA: 0x00008000, STRB: 0xf
# Waiting for transaction...
# UVM_INFO ../model/Environment/apb_m_monitor.sv(73) @ 1855000: uvm_test_top.env.agent.monitor [apb_m_monitor] Write transaction captured: addr=0x00090000, data=0x00008000, strb=0xf
# UVM_INFO ../model/Environment/scoreboard.sv(36) @ 1855000: uvm_test_top.env.scb [apb_scoreboard] WRITE: addr=0x00090000, data=0x00008000, strb=0xf, write_count=16
# Waiting for transaction...
# UVM_INFO ../model/Environment/apb_m_monitor.sv(76) @ 1885000: uvm_test_top.env.agent.monitor [apb_m_monitor] Read transaction captured: addr=0x00090000, data=0x00000000
# UVM_INFO ../model/Environment/scoreboard.sv(62) @ 1885000: uvm_test_top.env.scb [apb_scoreboard] READ: addr=0x00090000, data=0x00000000, read_count=45
# UVM_INFO ../seq/base_seq.sv(38) @ 1885000: uvm_test_top.env.agent.sequencer@@onehot_sequence [onehot_seq] Sending write transaction - ADDR: 0x00090000, DATA: 0x00010000, STRB: 0xf
# Waiting for transaction...
# UVM_INFO ../model/Environment/apb_m_monitor.sv(73) @ 1915000: uvm_test_top.env.agent.monitor [apb_m_monitor] Write transaction captured: addr=0x00090000, data=0x00010000, strb=0xf
# UVM_INFO ../model/Environment/scoreboard.sv(36) @ 1915000: uvm_test_top.env.scb [apb_scoreboard] WRITE: addr=0x00090000, data=0x00010000, strb=0xf, write_count=17
# Waiting for transaction...
# UVM_INFO ../model/Environment/apb_m_monitor.sv(76) @ 1945000: uvm_test_top.env.agent.monitor [apb_m_monitor] Read transaction captured: addr=0x00090000, data=0x00000000
# UVM_INFO ../model/Environment/scoreboard.sv(62) @ 1945000: uvm_test_top.env.scb [apb_scoreboard] READ: addr=0x00090000, data=0x00000000, read_count=46
# UVM_INFO ../seq/base_seq.sv(38) @ 1945000: uvm_test_top.env.agent.sequencer@@onehot_sequence [onehot_seq] Sending write transaction - ADDR: 0x00090000, DATA: 0x00020000, STRB: 0xf
# Waiting for transaction...
# UVM_INFO ../model/Environment/apb_m_monitor.sv(73) @ 1975000: uvm_test_top.env.agent.monitor [apb_m_monitor] Write transaction captured: addr=0x00090000, data=0x00020000, strb=0xf
# UVM_INFO ../model/Environment/scoreboard.sv(36) @ 1975000: uvm_test_top.env.scb [apb_scoreboard] WRITE: addr=0x00090000, data=0x00020000, strb=0xf, write_count=18
# Waiting for transaction...
# UVM_INFO ../model/Environment/apb_m_monitor.sv(76) @ 2005000: uvm_test_top.env.agent.monitor [apb_m_monitor] Read transaction captured: addr=0x00090000, data=0x00000000
# UVM_INFO ../model/Environment/scoreboard.sv(62) @ 2005000: uvm_test_top.env.scb [apb_scoreboard] READ: addr=0x00090000, data=0x00000000, read_count=47
# UVM_INFO ../seq/base_seq.sv(38) @ 2005000: uvm_test_top.env.agent.sequencer@@onehot_sequence [onehot_seq] Sending write transaction - ADDR: 0x00090000, DATA: 0x00040000, STRB: 0xf
# Waiting for transaction...
# UVM_INFO ../model/Environment/apb_m_monitor.sv(73) @ 2035000: uvm_test_top.env.agent.monitor [apb_m_monitor] Write transaction captured: addr=0x00090000, data=0x00040000, strb=0xf
# UVM_INFO ../model/Environment/scoreboard.sv(36) @ 2035000: uvm_test_top.env.scb [apb_scoreboard] WRITE: addr=0x00090000, data=0x00040000, strb=0xf, write_count=19
# Waiting for transaction...
# UVM_INFO ../model/Environment/apb_m_monitor.sv(76) @ 2065000: uvm_test_top.env.agent.monitor [apb_m_monitor] Read transaction captured: addr=0x00090000, data=0x00000000
# UVM_INFO ../model/Environment/scoreboard.sv(62) @ 2065000: uvm_test_top.env.scb [apb_scoreboard] READ: addr=0x00090000, data=0x00000000, read_count=48
# UVM_INFO ../seq/base_seq.sv(38) @ 2065000: uvm_test_top.env.agent.sequencer@@onehot_sequence [onehot_seq] Sending write transaction - ADDR: 0x00090000, DATA: 0x00080000, STRB: 0xf
# Waiting for transaction...
# UVM_INFO ../model/Environment/apb_m_monitor.sv(73) @ 2095000: uvm_test_top.env.agent.monitor [apb_m_monitor] Write transaction captured: addr=0x00090000, data=0x00080000, strb=0xf
# UVM_INFO ../model/Environment/scoreboard.sv(36) @ 2095000: uvm_test_top.env.scb [apb_scoreboard] WRITE: addr=0x00090000, data=0x00080000, strb=0xf, write_count=20
# Waiting for transaction...
# UVM_INFO ../model/Environment/apb_m_monitor.sv(76) @ 2125000: uvm_test_top.env.agent.monitor [apb_m_monitor] Read transaction captured: addr=0x00090000, data=0x00000000
# UVM_INFO ../model/Environment/scoreboard.sv(62) @ 2125000: uvm_test_top.env.scb [apb_scoreboard] READ: addr=0x00090000, data=0x00000000, read_count=49
# UVM_INFO ../seq/base_seq.sv(38) @ 2125000: uvm_test_top.env.agent.sequencer@@onehot_sequence [onehot_seq] Sending write transaction - ADDR: 0x00090000, DATA: 0x00100000, STRB: 0xf
# Waiting for transaction...
# UVM_INFO ../model/Environment/apb_m_monitor.sv(73) @ 2155000: uvm_test_top.env.agent.monitor [apb_m_monitor] Write transaction captured: addr=0x00090000, data=0x00100000, strb=0xf
# UVM_INFO ../model/Environment/scoreboard.sv(36) @ 2155000: uvm_test_top.env.scb [apb_scoreboard] WRITE: addr=0x00090000, data=0x00100000, strb=0xf, write_count=21
# Waiting for transaction...
# UVM_INFO ../model/Environment/apb_m_monitor.sv(76) @ 2185000: uvm_test_top.env.agent.monitor [apb_m_monitor] Read transaction captured: addr=0x00090000, data=0x00000000
# UVM_INFO ../model/Environment/scoreboard.sv(62) @ 2185000: uvm_test_top.env.scb [apb_scoreboard] READ: addr=0x00090000, data=0x00000000, read_count=50
# UVM_INFO ../seq/base_seq.sv(38) @ 2185000: uvm_test_top.env.agent.sequencer@@onehot_sequence [onehot_seq] Sending write transaction - ADDR: 0x00090000, DATA: 0x00200000, STRB: 0xf
# Waiting for transaction...
# UVM_INFO ../model/Environment/apb_m_monitor.sv(73) @ 2215000: uvm_test_top.env.agent.monitor [apb_m_monitor] Write transaction captured: addr=0x00090000, data=0x00200000, strb=0xf
# UVM_INFO ../model/Environment/scoreboard.sv(36) @ 2215000: uvm_test_top.env.scb [apb_scoreboard] WRITE: addr=0x00090000, data=0x00200000, strb=0xf, write_count=22
# Waiting for transaction...
# UVM_INFO ../model/Environment/apb_m_monitor.sv(76) @ 2245000: uvm_test_top.env.agent.monitor [apb_m_monitor] Read transaction captured: addr=0x00090000, data=0x00000000
# UVM_INFO ../model/Environment/scoreboard.sv(62) @ 2245000: uvm_test_top.env.scb [apb_scoreboard] READ: addr=0x00090000, data=0x00000000, read_count=51
# UVM_INFO ../seq/base_seq.sv(38) @ 2245000: uvm_test_top.env.agent.sequencer@@onehot_sequence [onehot_seq] Sending write transaction - ADDR: 0x00090000, DATA: 0x00400000, STRB: 0xf
# Waiting for transaction...
# UVM_INFO ../model/Environment/apb_m_monitor.sv(73) @ 2275000: uvm_test_top.env.agent.monitor [apb_m_monitor] Write transaction captured: addr=0x00090000, data=0x00400000, strb=0xf
# UVM_INFO ../model/Environment/scoreboard.sv(36) @ 2275000: uvm_test_top.env.scb [apb_scoreboard] WRITE: addr=0x00090000, data=0x00400000, strb=0xf, write_count=23
# Waiting for transaction...
# UVM_INFO ../model/Environment/apb_m_monitor.sv(76) @ 2305000: uvm_test_top.env.agent.monitor [apb_m_monitor] Read transaction captured: addr=0x00090000, data=0x00000000
# UVM_INFO ../model/Environment/scoreboard.sv(62) @ 2305000: uvm_test_top.env.scb [apb_scoreboard] READ: addr=0x00090000, data=0x00000000, read_count=52
# UVM_INFO ../seq/base_seq.sv(38) @ 2305000: uvm_test_top.env.agent.sequencer@@onehot_sequence [onehot_seq] Sending write transaction - ADDR: 0x00090000, DATA: 0x00800000, STRB: 0xf
# Waiting for transaction...
# UVM_INFO ../model/Environment/apb_m_monitor.sv(73) @ 2335000: uvm_test_top.env.agent.monitor [apb_m_monitor] Write transaction captured: addr=0x00090000, data=0x00800000, strb=0xf
# UVM_INFO ../model/Environment/scoreboard.sv(36) @ 2335000: uvm_test_top.env.scb [apb_scoreboard] WRITE: addr=0x00090000, data=0x00800000, strb=0xf, write_count=24
# Waiting for transaction...
# UVM_INFO ../model/Environment/apb_m_monitor.sv(76) @ 2365000: uvm_test_top.env.agent.monitor [apb_m_monitor] Read transaction captured: addr=0x00090000, data=0x00000000
# UVM_INFO ../model/Environment/scoreboard.sv(62) @ 2365000: uvm_test_top.env.scb [apb_scoreboard] READ: addr=0x00090000, data=0x00000000, read_count=53
# UVM_INFO ../seq/base_seq.sv(38) @ 2365000: uvm_test_top.env.agent.sequencer@@onehot_sequence [onehot_seq] Sending write transaction - ADDR: 0x00090000, DATA: 0x01000000, STRB: 0xf
# Waiting for transaction...
# UVM_INFO ../model/Environment/apb_m_monitor.sv(73) @ 2395000: uvm_test_top.env.agent.monitor [apb_m_monitor] Write transaction captured: addr=0x00090000, data=0x01000000, strb=0xf
# UVM_INFO ../model/Environment/scoreboard.sv(36) @ 2395000: uvm_test_top.env.scb [apb_scoreboard] WRITE: addr=0x00090000, data=0x01000000, strb=0xf, write_count=25
# Waiting for transaction...
# UVM_INFO ../model/Environment/apb_m_monitor.sv(76) @ 2425000: uvm_test_top.env.agent.monitor [apb_m_monitor] Read transaction captured: addr=0x00090000, data=0x00000000
# UVM_INFO ../model/Environment/scoreboard.sv(62) @ 2425000: uvm_test_top.env.scb [apb_scoreboard] READ: addr=0x00090000, data=0x00000000, read_count=54
# UVM_INFO ../seq/base_seq.sv(38) @ 2425000: uvm_test_top.env.agent.sequencer@@onehot_sequence [onehot_seq] Sending write transaction - ADDR: 0x00090000, DATA: 0x02000000, STRB: 0xf
# Waiting for transaction...
# UVM_INFO ../model/Environment/apb_m_monitor.sv(73) @ 2455000: uvm_test_top.env.agent.monitor [apb_m_monitor] Write transaction captured: addr=0x00090000, data=0x02000000, strb=0xf
# UVM_INFO ../model/Environment/scoreboard.sv(36) @ 2455000: uvm_test_top.env.scb [apb_scoreboard] WRITE: addr=0x00090000, data=0x02000000, strb=0xf, write_count=26
# Waiting for transaction...
# UVM_INFO ../model/Environment/apb_m_monitor.sv(76) @ 2485000: uvm_test_top.env.agent.monitor [apb_m_monitor] Read transaction captured: addr=0x00090000, data=0x00000000
# UVM_INFO ../model/Environment/scoreboard.sv(62) @ 2485000: uvm_test_top.env.scb [apb_scoreboard] READ: addr=0x00090000, data=0x00000000, read_count=55
# UVM_INFO ../seq/base_seq.sv(38) @ 2485000: uvm_test_top.env.agent.sequencer@@onehot_sequence [onehot_seq] Sending write transaction - ADDR: 0x00090000, DATA: 0x04000000, STRB: 0xf
# Waiting for transaction...
# UVM_INFO ../model/Environment/apb_m_monitor.sv(73) @ 2515000: uvm_test_top.env.agent.monitor [apb_m_monitor] Write transaction captured: addr=0x00090000, data=0x04000000, strb=0xf
# UVM_INFO ../model/Environment/scoreboard.sv(36) @ 2515000: uvm_test_top.env.scb [apb_scoreboard] WRITE: addr=0x00090000, data=0x04000000, strb=0xf, write_count=27
# Waiting for transaction...
# UVM_INFO ../model/Environment/apb_m_monitor.sv(76) @ 2545000: uvm_test_top.env.agent.monitor [apb_m_monitor] Read transaction captured: addr=0x00090000, data=0x00000000
# UVM_INFO ../model/Environment/scoreboard.sv(62) @ 2545000: uvm_test_top.env.scb [apb_scoreboard] READ: addr=0x00090000, data=0x00000000, read_count=56
# UVM_INFO ../seq/base_seq.sv(38) @ 2545000: uvm_test_top.env.agent.sequencer@@onehot_sequence [onehot_seq] Sending write transaction - ADDR: 0x00090000, DATA: 0x08000000, STRB: 0xf
# Waiting for transaction...
# UVM_INFO ../model/Environment/apb_m_monitor.sv(73) @ 2575000: uvm_test_top.env.agent.monitor [apb_m_monitor] Write transaction captured: addr=0x00090000, data=0x08000000, strb=0xf
# UVM_INFO ../model/Environment/scoreboard.sv(36) @ 2575000: uvm_test_top.env.scb [apb_scoreboard] WRITE: addr=0x00090000, data=0x08000000, strb=0xf, write_count=28
# Waiting for transaction...
# UVM_INFO ../model/Environment/apb_m_monitor.sv(76) @ 2605000: uvm_test_top.env.agent.monitor [apb_m_monitor] Read transaction captured: addr=0x00090000, data=0x00000000
# UVM_INFO ../model/Environment/scoreboard.sv(62) @ 2605000: uvm_test_top.env.scb [apb_scoreboard] READ: addr=0x00090000, data=0x00000000, read_count=57
# UVM_INFO ../seq/base_seq.sv(38) @ 2605000: uvm_test_top.env.agent.sequencer@@onehot_sequence [onehot_seq] Sending write transaction - ADDR: 0x00090000, DATA: 0x10000000, STRB: 0xf
# Waiting for transaction...
# UVM_INFO ../model/Environment/apb_m_monitor.sv(73) @ 2635000: uvm_test_top.env.agent.monitor [apb_m_monitor] Write transaction captured: addr=0x00090000, data=0x10000000, strb=0xf
# UVM_INFO ../model/Environment/scoreboard.sv(36) @ 2635000: uvm_test_top.env.scb [apb_scoreboard] WRITE: addr=0x00090000, data=0x10000000, strb=0xf, write_count=29
# Waiting for transaction...
# UVM_INFO ../model/Environment/apb_m_monitor.sv(76) @ 2665000: uvm_test_top.env.agent.monitor [apb_m_monitor] Read transaction captured: addr=0x00090000, data=0x00000000
# UVM_INFO ../model/Environment/scoreboard.sv(62) @ 2665000: uvm_test_top.env.scb [apb_scoreboard] READ: addr=0x00090000, data=0x00000000, read_count=58
# UVM_INFO ../seq/base_seq.sv(38) @ 2665000: uvm_test_top.env.agent.sequencer@@onehot_sequence [onehot_seq] Sending write transaction - ADDR: 0x00090000, DATA: 0x20000000, STRB: 0xf
# Waiting for transaction...
# UVM_INFO ../model/Environment/apb_m_monitor.sv(73) @ 2695000: uvm_test_top.env.agent.monitor [apb_m_monitor] Write transaction captured: addr=0x00090000, data=0x20000000, strb=0xf
# UVM_INFO ../model/Environment/scoreboard.sv(36) @ 2695000: uvm_test_top.env.scb [apb_scoreboard] WRITE: addr=0x00090000, data=0x20000000, strb=0xf, write_count=30
# Waiting for transaction...
# UVM_INFO ../model/Environment/apb_m_monitor.sv(76) @ 2725000: uvm_test_top.env.agent.monitor [apb_m_monitor] Read transaction captured: addr=0x00090000, data=0x00000000
# UVM_INFO ../model/Environment/scoreboard.sv(62) @ 2725000: uvm_test_top.env.scb [apb_scoreboard] READ: addr=0x00090000, data=0x00000000, read_count=59
# UVM_INFO ../seq/base_seq.sv(38) @ 2725000: uvm_test_top.env.agent.sequencer@@onehot_sequence [onehot_seq] Sending write transaction - ADDR: 0x00090000, DATA: 0x40000000, STRB: 0xf
# Waiting for transaction...
# UVM_INFO ../model/Environment/apb_m_monitor.sv(73) @ 2755000: uvm_test_top.env.agent.monitor [apb_m_monitor] Write transaction captured: addr=0x00090000, data=0x40000000, strb=0xf
# UVM_INFO ../model/Environment/scoreboard.sv(36) @ 2755000: uvm_test_top.env.scb [apb_scoreboard] WRITE: addr=0x00090000, data=0x40000000, strb=0xf, write_count=31
# Waiting for transaction...
# UVM_INFO ../model/Environment/apb_m_monitor.sv(76) @ 2785000: uvm_test_top.env.agent.monitor [apb_m_monitor] Read transaction captured: addr=0x00090000, data=0x00000000
# UVM_INFO ../model/Environment/scoreboard.sv(62) @ 2785000: uvm_test_top.env.scb [apb_scoreboard] READ: addr=0x00090000, data=0x00000000, read_count=60
# UVM_INFO ../seq/base_seq.sv(38) @ 2785000: uvm_test_top.env.agent.sequencer@@onehot_sequence [onehot_seq] Sending write transaction - ADDR: 0x00090000, DATA: 0x80000000, STRB: 0xf
# Waiting for transaction...
# UVM_INFO ../model/Environment/apb_m_monitor.sv(73) @ 2815000: uvm_test_top.env.agent.monitor [apb_m_monitor] Write transaction captured: addr=0x00090000, data=0x80000000, strb=0xf
# UVM_INFO ../model/Environment/scoreboard.sv(36) @ 2815000: uvm_test_top.env.scb [apb_scoreboard] WRITE: addr=0x00090000, data=0x80000000, strb=0xf, write_count=32
# Waiting for transaction...
# UVM_INFO ../model/Environment/apb_m_monitor.sv(76) @ 2845000: uvm_test_top.env.agent.monitor [apb_m_monitor] Read transaction captured: addr=0x00090000, data=0x00000000
# UVM_INFO ../model/Environment/scoreboard.sv(62) @ 2845000: uvm_test_top.env.scb [apb_scoreboard] READ: addr=0x00090000, data=0x00000000, read_count=61
# UVM_INFO ../seq/base_seq.sv(38) @ 2845000: uvm_test_top.env.agent.sequencer@@onehot_sequence [onehot_seq] Sending write transaction - ADDR: 0x00090004, DATA: 0x00000001, STRB: 0xf
# Waiting for transaction...
# UVM_INFO ../model/Environment/apb_m_monitor.sv(73) @ 2875000: uvm_test_top.env.agent.monitor [apb_m_monitor] Write transaction captured: addr=0x00090004, data=0x00000001, strb=0xf
# UVM_INFO ../model/Environment/scoreboard.sv(36) @ 2875000: uvm_test_top.env.scb [apb_scoreboard] WRITE: addr=0x00090004, data=0x00000001, strb=0xf, write_count=33
# Waiting for transaction...
# UVM_INFO ../model/Environment/apb_m_monitor.sv(76) @ 2905000: uvm_test_top.env.agent.monitor [apb_m_monitor] Read transaction captured: addr=0x00090004, data=0x00000001
# UVM_INFO ../model/Environment/scoreboard.sv(62) @ 2905000: uvm_test_top.env.scb [apb_scoreboard] READ: addr=0x00090004, data=0x00000001, read_count=62
# UVM_INFO ../seq/base_seq.sv(38) @ 2905000: uvm_test_top.env.agent.sequencer@@onehot_sequence [onehot_seq] Sending write transaction - ADDR: 0x00090004, DATA: 0x00000002, STRB: 0xf
# Waiting for transaction...
# UVM_INFO ../model/Environment/apb_m_monitor.sv(73) @ 2935000: uvm_test_top.env.agent.monitor [apb_m_monitor] Write transaction captured: addr=0x00090004, data=0x00000002, strb=0xf
# UVM_INFO ../model/Environment/scoreboard.sv(36) @ 2935000: uvm_test_top.env.scb [apb_scoreboard] WRITE: addr=0x00090004, data=0x00000002, strb=0xf, write_count=34
# Waiting for transaction...
# UVM_INFO ../model/Environment/apb_m_monitor.sv(76) @ 2965000: uvm_test_top.env.agent.monitor [apb_m_monitor] Read transaction captured: addr=0x00090004, data=0x00000002
# UVM_INFO ../model/Environment/scoreboard.sv(62) @ 2965000: uvm_test_top.env.scb [apb_scoreboard] READ: addr=0x00090004, data=0x00000002, read_count=63
# UVM_INFO ../seq/base_seq.sv(38) @ 2965000: uvm_test_top.env.agent.sequencer@@onehot_sequence [onehot_seq] Sending write transaction - ADDR: 0x00090004, DATA: 0x00000004, STRB: 0xf
# Waiting for transaction...
# UVM_INFO ../model/Environment/apb_m_monitor.sv(73) @ 2995000: uvm_test_top.env.agent.monitor [apb_m_monitor] Write transaction captured: addr=0x00090004, data=0x00000004, strb=0xf
# UVM_INFO ../model/Environment/scoreboard.sv(36) @ 2995000: uvm_test_top.env.scb [apb_scoreboard] WRITE: addr=0x00090004, data=0x00000004, strb=0xf, write_count=35
# Waiting for transaction...
# UVM_INFO ../model/Environment/apb_m_monitor.sv(76) @ 3025000: uvm_test_top.env.agent.monitor [apb_m_monitor] Read transaction captured: addr=0x00090004, data=0x00000004
# UVM_INFO ../model/Environment/scoreboard.sv(62) @ 3025000: uvm_test_top.env.scb [apb_scoreboard] READ: addr=0x00090004, data=0x00000004, read_count=64
# UVM_INFO ../seq/base_seq.sv(38) @ 3025000: uvm_test_top.env.agent.sequencer@@onehot_sequence [onehot_seq] Sending write transaction - ADDR: 0x00090004, DATA: 0x00000008, STRB: 0xf
# Waiting for transaction...
# UVM_INFO ../model/Environment/apb_m_monitor.sv(73) @ 3055000: uvm_test_top.env.agent.monitor [apb_m_monitor] Write transaction captured: addr=0x00090004, data=0x00000008, strb=0xf
# UVM_INFO ../model/Environment/scoreboard.sv(36) @ 3055000: uvm_test_top.env.scb [apb_scoreboard] WRITE: addr=0x00090004, data=0x00000008, strb=0xf, write_count=36
# Waiting for transaction...
# UVM_INFO ../model/Environment/apb_m_monitor.sv(76) @ 3085000: uvm_test_top.env.agent.monitor [apb_m_monitor] Read transaction captured: addr=0x00090004, data=0x00000008
# UVM_INFO ../model/Environment/scoreboard.sv(62) @ 3085000: uvm_test_top.env.scb [apb_scoreboard] READ: addr=0x00090004, data=0x00000008, read_count=65
# UVM_INFO ../seq/base_seq.sv(38) @ 3085000: uvm_test_top.env.agent.sequencer@@onehot_sequence [onehot_seq] Sending write transaction - ADDR: 0x00090004, DATA: 0x00000010, STRB: 0xf
# Waiting for transaction...
# UVM_INFO ../model/Environment/apb_m_monitor.sv(73) @ 3115000: uvm_test_top.env.agent.monitor [apb_m_monitor] Write transaction captured: addr=0x00090004, data=0x00000010, strb=0xf
# UVM_INFO ../model/Environment/scoreboard.sv(36) @ 3115000: uvm_test_top.env.scb [apb_scoreboard] WRITE: addr=0x00090004, data=0x00000010, strb=0xf, write_count=37
# Waiting for transaction...
# UVM_INFO ../model/Environment/apb_m_monitor.sv(76) @ 3145000: uvm_test_top.env.agent.monitor [apb_m_monitor] Read transaction captured: addr=0x00090004, data=0x00000010
# UVM_INFO ../model/Environment/scoreboard.sv(62) @ 3145000: uvm_test_top.env.scb [apb_scoreboard] READ: addr=0x00090004, data=0x00000010, read_count=66
# UVM_INFO ../seq/base_seq.sv(38) @ 3145000: uvm_test_top.env.agent.sequencer@@onehot_sequence [onehot_seq] Sending write transaction - ADDR: 0x00090004, DATA: 0x00000020, STRB: 0xf
# Waiting for transaction...
# UVM_INFO ../model/Environment/apb_m_monitor.sv(73) @ 3175000: uvm_test_top.env.agent.monitor [apb_m_monitor] Write transaction captured: addr=0x00090004, data=0x00000020, strb=0xf
# UVM_INFO ../model/Environment/scoreboard.sv(36) @ 3175000: uvm_test_top.env.scb [apb_scoreboard] WRITE: addr=0x00090004, data=0x00000020, strb=0xf, write_count=38
# Waiting for transaction...
# UVM_INFO ../model/Environment/apb_m_monitor.sv(76) @ 3205000: uvm_test_top.env.agent.monitor [apb_m_monitor] Read transaction captured: addr=0x00090004, data=0x00000020
# UVM_INFO ../model/Environment/scoreboard.sv(62) @ 3205000: uvm_test_top.env.scb [apb_scoreboard] READ: addr=0x00090004, data=0x00000020, read_count=67
# UVM_INFO ../seq/base_seq.sv(38) @ 3205000: uvm_test_top.env.agent.sequencer@@onehot_sequence [onehot_seq] Sending write transaction - ADDR: 0x00090004, DATA: 0x00000040, STRB: 0xf
# Waiting for transaction...
# UVM_INFO ../model/Environment/apb_m_monitor.sv(73) @ 3235000: uvm_test_top.env.agent.monitor [apb_m_monitor] Write transaction captured: addr=0x00090004, data=0x00000040, strb=0xf
# UVM_INFO ../model/Environment/scoreboard.sv(36) @ 3235000: uvm_test_top.env.scb [apb_scoreboard] WRITE: addr=0x00090004, data=0x00000040, strb=0xf, write_count=39
# Waiting for transaction...
# UVM_INFO ../model/Environment/apb_m_monitor.sv(76) @ 3265000: uvm_test_top.env.agent.monitor [apb_m_monitor] Read transaction captured: addr=0x00090004, data=0x00000040
# UVM_INFO ../model/Environment/scoreboard.sv(62) @ 3265000: uvm_test_top.env.scb [apb_scoreboard] READ: addr=0x00090004, data=0x00000040, read_count=68
# UVM_INFO ../seq/base_seq.sv(38) @ 3265000: uvm_test_top.env.agent.sequencer@@onehot_sequence [onehot_seq] Sending write transaction - ADDR: 0x00090004, DATA: 0x00000080, STRB: 0xf
# Waiting for transaction...
# UVM_INFO ../model/Environment/apb_m_monitor.sv(73) @ 3295000: uvm_test_top.env.agent.monitor [apb_m_monitor] Write transaction captured: addr=0x00090004, data=0x00000080, strb=0xf
# UVM_INFO ../model/Environment/scoreboard.sv(36) @ 3295000: uvm_test_top.env.scb [apb_scoreboard] WRITE: addr=0x00090004, data=0x00000080, strb=0xf, write_count=40
# Waiting for transaction...
# UVM_INFO ../model/Environment/apb_m_monitor.sv(76) @ 3325000: uvm_test_top.env.agent.monitor [apb_m_monitor] Read transaction captured: addr=0x00090004, data=0x00000080
# UVM_INFO ../model/Environment/scoreboard.sv(62) @ 3325000: uvm_test_top.env.scb [apb_scoreboard] READ: addr=0x00090004, data=0x00000080, read_count=69
# UVM_INFO ../seq/base_seq.sv(38) @ 3325000: uvm_test_top.env.agent.sequencer@@onehot_sequence [onehot_seq] Sending write transaction - ADDR: 0x00090004, DATA: 0x00000100, STRB: 0xf
# Waiting for transaction...
# UVM_INFO ../model/Environment/apb_m_monitor.sv(73) @ 3355000: uvm_test_top.env.agent.monitor [apb_m_monitor] Write transaction captured: addr=0x00090004, data=0x00000100, strb=0xf
# UVM_INFO ../model/Environment/scoreboard.sv(36) @ 3355000: uvm_test_top.env.scb [apb_scoreboard] WRITE: addr=0x00090004, data=0x00000100, strb=0xf, write_count=41
# Waiting for transaction...
# UVM_INFO ../model/Environment/apb_m_monitor.sv(76) @ 3385000: uvm_test_top.env.agent.monitor [apb_m_monitor] Read transaction captured: addr=0x00090004, data=0x00000100
# UVM_INFO ../model/Environment/scoreboard.sv(62) @ 3385000: uvm_test_top.env.scb [apb_scoreboard] READ: addr=0x00090004, data=0x00000100, read_count=70
# UVM_INFO ../seq/base_seq.sv(38) @ 3385000: uvm_test_top.env.agent.sequencer@@onehot_sequence [onehot_seq] Sending write transaction - ADDR: 0x00090004, DATA: 0x00000200, STRB: 0xf
# Waiting for transaction...
# UVM_INFO ../model/Environment/apb_m_monitor.sv(73) @ 3415000: uvm_test_top.env.agent.monitor [apb_m_monitor] Write transaction captured: addr=0x00090004, data=0x00000200, strb=0xf
# UVM_INFO ../model/Environment/scoreboard.sv(36) @ 3415000: uvm_test_top.env.scb [apb_scoreboard] WRITE: addr=0x00090004, data=0x00000200, strb=0xf, write_count=42
# Waiting for transaction...
# UVM_INFO ../model/Environment/apb_m_monitor.sv(76) @ 3445000: uvm_test_top.env.agent.monitor [apb_m_monitor] Read transaction captured: addr=0x00090004, data=0x00000200
# UVM_INFO ../model/Environment/scoreboard.sv(62) @ 3445000: uvm_test_top.env.scb [apb_scoreboard] READ: addr=0x00090004, data=0x00000200, read_count=71
# UVM_INFO ../seq/base_seq.sv(38) @ 3445000: uvm_test_top.env.agent.sequencer@@onehot_sequence [onehot_seq] Sending write transaction - ADDR: 0x00090004, DATA: 0x00000400, STRB: 0xf
# Waiting for transaction...
# UVM_INFO ../model/Environment/apb_m_monitor.sv(73) @ 3475000: uvm_test_top.env.agent.monitor [apb_m_monitor] Write transaction captured: addr=0x00090004, data=0x00000400, strb=0xf
# UVM_INFO ../model/Environment/scoreboard.sv(36) @ 3475000: uvm_test_top.env.scb [apb_scoreboard] WRITE: addr=0x00090004, data=0x00000400, strb=0xf, write_count=43
# Waiting for transaction...
# UVM_INFO ../model/Environment/apb_m_monitor.sv(76) @ 3505000: uvm_test_top.env.agent.monitor [apb_m_monitor] Read transaction captured: addr=0x00090004, data=0x00000400
# UVM_INFO ../model/Environment/scoreboard.sv(62) @ 3505000: uvm_test_top.env.scb [apb_scoreboard] READ: addr=0x00090004, data=0x00000400, read_count=72
# UVM_INFO ../seq/base_seq.sv(38) @ 3505000: uvm_test_top.env.agent.sequencer@@onehot_sequence [onehot_seq] Sending write transaction - ADDR: 0x00090004, DATA: 0x00000800, STRB: 0xf
# Waiting for transaction...
# UVM_INFO ../model/Environment/apb_m_monitor.sv(73) @ 3535000: uvm_test_top.env.agent.monitor [apb_m_monitor] Write transaction captured: addr=0x00090004, data=0x00000800, strb=0xf
# UVM_INFO ../model/Environment/scoreboard.sv(36) @ 3535000: uvm_test_top.env.scb [apb_scoreboard] WRITE: addr=0x00090004, data=0x00000800, strb=0xf, write_count=44
# Waiting for transaction...
# UVM_INFO ../model/Environment/apb_m_monitor.sv(76) @ 3565000: uvm_test_top.env.agent.monitor [apb_m_monitor] Read transaction captured: addr=0x00090004, data=0x00000800
# UVM_INFO ../model/Environment/scoreboard.sv(62) @ 3565000: uvm_test_top.env.scb [apb_scoreboard] READ: addr=0x00090004, data=0x00000800, read_count=73
# UVM_INFO ../seq/base_seq.sv(38) @ 3565000: uvm_test_top.env.agent.sequencer@@onehot_sequence [onehot_seq] Sending write transaction - ADDR: 0x00090004, DATA: 0x00001000, STRB: 0xf
# Waiting for transaction...
# UVM_INFO ../model/Environment/apb_m_monitor.sv(73) @ 3595000: uvm_test_top.env.agent.monitor [apb_m_monitor] Write transaction captured: addr=0x00090004, data=0x00001000, strb=0xf
# UVM_INFO ../model/Environment/scoreboard.sv(36) @ 3595000: uvm_test_top.env.scb [apb_scoreboard] WRITE: addr=0x00090004, data=0x00001000, strb=0xf, write_count=45
# Waiting for transaction...
# UVM_INFO ../model/Environment/apb_m_monitor.sv(76) @ 3625000: uvm_test_top.env.agent.monitor [apb_m_monitor] Read transaction captured: addr=0x00090004, data=0x00001000
# UVM_INFO ../model/Environment/scoreboard.sv(62) @ 3625000: uvm_test_top.env.scb [apb_scoreboard] READ: addr=0x00090004, data=0x00001000, read_count=74
# UVM_INFO ../seq/base_seq.sv(38) @ 3625000: uvm_test_top.env.agent.sequencer@@onehot_sequence [onehot_seq] Sending write transaction - ADDR: 0x00090004, DATA: 0x00002000, STRB: 0xf
# Waiting for transaction...
# UVM_INFO ../model/Environment/apb_m_monitor.sv(73) @ 3655000: uvm_test_top.env.agent.monitor [apb_m_monitor] Write transaction captured: addr=0x00090004, data=0x00002000, strb=0xf
# UVM_INFO ../model/Environment/scoreboard.sv(36) @ 3655000: uvm_test_top.env.scb [apb_scoreboard] WRITE: addr=0x00090004, data=0x00002000, strb=0xf, write_count=46
# Waiting for transaction...
# UVM_INFO ../model/Environment/apb_m_monitor.sv(76) @ 3685000: uvm_test_top.env.agent.monitor [apb_m_monitor] Read transaction captured: addr=0x00090004, data=0x00002000
# UVM_INFO ../model/Environment/scoreboard.sv(62) @ 3685000: uvm_test_top.env.scb [apb_scoreboard] READ: addr=0x00090004, data=0x00002000, read_count=75
# UVM_INFO ../seq/base_seq.sv(38) @ 3685000: uvm_test_top.env.agent.sequencer@@onehot_sequence [onehot_seq] Sending write transaction - ADDR: 0x00090004, DATA: 0x00004000, STRB: 0xf
# Waiting for transaction...
# UVM_INFO ../model/Environment/apb_m_monitor.sv(73) @ 3715000: uvm_test_top.env.agent.monitor [apb_m_monitor] Write transaction captured: addr=0x00090004, data=0x00004000, strb=0xf
# UVM_INFO ../model/Environment/scoreboard.sv(36) @ 3715000: uvm_test_top.env.scb [apb_scoreboard] WRITE: addr=0x00090004, data=0x00004000, strb=0xf, write_count=47
# Waiting for transaction...
# UVM_INFO ../model/Environment/apb_m_monitor.sv(76) @ 3745000: uvm_test_top.env.agent.monitor [apb_m_monitor] Read transaction captured: addr=0x00090004, data=0x00004000
# UVM_INFO ../model/Environment/scoreboard.sv(62) @ 3745000: uvm_test_top.env.scb [apb_scoreboard] READ: addr=0x00090004, data=0x00004000, read_count=76
# UVM_INFO ../seq/base_seq.sv(38) @ 3745000: uvm_test_top.env.agent.sequencer@@onehot_sequence [onehot_seq] Sending write transaction - ADDR: 0x00090004, DATA: 0x00008000, STRB: 0xf
# Waiting for transaction...
# UVM_INFO ../model/Environment/apb_m_monitor.sv(73) @ 3775000: uvm_test_top.env.agent.monitor [apb_m_monitor] Write transaction captured: addr=0x00090004, data=0x00008000, strb=0xf
# UVM_INFO ../model/Environment/scoreboard.sv(36) @ 3775000: uvm_test_top.env.scb [apb_scoreboard] WRITE: addr=0x00090004, data=0x00008000, strb=0xf, write_count=48
# Waiting for transaction...
# UVM_INFO ../model/Environment/apb_m_monitor.sv(76) @ 3805000: uvm_test_top.env.agent.monitor [apb_m_monitor] Read transaction captured: addr=0x00090004, data=0x00008000
# UVM_INFO ../model/Environment/scoreboard.sv(62) @ 3805000: uvm_test_top.env.scb [apb_scoreboard] READ: addr=0x00090004, data=0x00008000, read_count=77
# UVM_INFO ../seq/base_seq.sv(38) @ 3805000: uvm_test_top.env.agent.sequencer@@onehot_sequence [onehot_seq] Sending write transaction - ADDR: 0x00090004, DATA: 0x00010000, STRB: 0xf
# Waiting for transaction...
# UVM_INFO ../model/Environment/apb_m_monitor.sv(73) @ 3835000: uvm_test_top.env.agent.monitor [apb_m_monitor] Write transaction captured: addr=0x00090004, data=0x00010000, strb=0xf
# UVM_INFO ../model/Environment/scoreboard.sv(36) @ 3835000: uvm_test_top.env.scb [apb_scoreboard] WRITE: addr=0x00090004, data=0x00010000, strb=0xf, write_count=49
# Waiting for transaction...
# UVM_INFO ../model/Environment/apb_m_monitor.sv(76) @ 3865000: uvm_test_top.env.agent.monitor [apb_m_monitor] Read transaction captured: addr=0x00090004, data=0x00000000
# UVM_INFO ../model/Environment/scoreboard.sv(62) @ 3865000: uvm_test_top.env.scb [apb_scoreboard] READ: addr=0x00090004, data=0x00000000, read_count=78
# UVM_INFO ../seq/base_seq.sv(38) @ 3865000: uvm_test_top.env.agent.sequencer@@onehot_sequence [onehot_seq] Sending write transaction - ADDR: 0x00090004, DATA: 0x00020000, STRB: 0xf
# Waiting for transaction...
# UVM_INFO ../model/Environment/apb_m_monitor.sv(73) @ 3895000: uvm_test_top.env.agent.monitor [apb_m_monitor] Write transaction captured: addr=0x00090004, data=0x00020000, strb=0xf
# UVM_INFO ../model/Environment/scoreboard.sv(36) @ 3895000: uvm_test_top.env.scb [apb_scoreboard] WRITE: addr=0x00090004, data=0x00020000, strb=0xf, write_count=50
# Waiting for transaction...
# UVM_INFO ../model/Environment/apb_m_monitor.sv(76) @ 3925000: uvm_test_top.env.agent.monitor [apb_m_monitor] Read transaction captured: addr=0x00090004, data=0x00000000
# UVM_INFO ../model/Environment/scoreboard.sv(62) @ 3925000: uvm_test_top.env.scb [apb_scoreboard] READ: addr=0x00090004, data=0x00000000, read_count=79
# UVM_INFO ../seq/base_seq.sv(38) @ 3925000: uvm_test_top.env.agent.sequencer@@onehot_sequence [onehot_seq] Sending write transaction - ADDR: 0x00090004, DATA: 0x00040000, STRB: 0xf
# Waiting for transaction...
# UVM_INFO ../model/Environment/apb_m_monitor.sv(73) @ 3955000: uvm_test_top.env.agent.monitor [apb_m_monitor] Write transaction captured: addr=0x00090004, data=0x00040000, strb=0xf
# UVM_INFO ../model/Environment/scoreboard.sv(36) @ 3955000: uvm_test_top.env.scb [apb_scoreboard] WRITE: addr=0x00090004, data=0x00040000, strb=0xf, write_count=51
# Waiting for transaction...
# UVM_INFO ../model/Environment/apb_m_monitor.sv(76) @ 3985000: uvm_test_top.env.agent.monitor [apb_m_monitor] Read transaction captured: addr=0x00090004, data=0x00000000
# UVM_INFO ../model/Environment/scoreboard.sv(62) @ 3985000: uvm_test_top.env.scb [apb_scoreboard] READ: addr=0x00090004, data=0x00000000, read_count=80
# UVM_INFO ../seq/base_seq.sv(38) @ 3985000: uvm_test_top.env.agent.sequencer@@onehot_sequence [onehot_seq] Sending write transaction - ADDR: 0x00090004, DATA: 0x00080000, STRB: 0xf
# Waiting for transaction...
# UVM_INFO ../model/Environment/apb_m_monitor.sv(73) @ 4015000: uvm_test_top.env.agent.monitor [apb_m_monitor] Write transaction captured: addr=0x00090004, data=0x00080000, strb=0xf
# UVM_INFO ../model/Environment/scoreboard.sv(36) @ 4015000: uvm_test_top.env.scb [apb_scoreboard] WRITE: addr=0x00090004, data=0x00080000, strb=0xf, write_count=52
# Waiting for transaction...
# UVM_INFO ../model/Environment/apb_m_monitor.sv(76) @ 4045000: uvm_test_top.env.agent.monitor [apb_m_monitor] Read transaction captured: addr=0x00090004, data=0x00000000
# UVM_INFO ../model/Environment/scoreboard.sv(62) @ 4045000: uvm_test_top.env.scb [apb_scoreboard] READ: addr=0x00090004, data=0x00000000, read_count=81
# UVM_INFO ../seq/base_seq.sv(38) @ 4045000: uvm_test_top.env.agent.sequencer@@onehot_sequence [onehot_seq] Sending write transaction - ADDR: 0x00090004, DATA: 0x00100000, STRB: 0xf
# Waiting for transaction...
# UVM_INFO ../model/Environment/apb_m_monitor.sv(73) @ 4075000: uvm_test_top.env.agent.monitor [apb_m_monitor] Write transaction captured: addr=0x00090004, data=0x00100000, strb=0xf
# UVM_INFO ../model/Environment/scoreboard.sv(36) @ 4075000: uvm_test_top.env.scb [apb_scoreboard] WRITE: addr=0x00090004, data=0x00100000, strb=0xf, write_count=53
# Waiting for transaction...
# UVM_INFO ../model/Environment/apb_m_monitor.sv(76) @ 4105000: uvm_test_top.env.agent.monitor [apb_m_monitor] Read transaction captured: addr=0x00090004, data=0x00000000
# UVM_INFO ../model/Environment/scoreboard.sv(62) @ 4105000: uvm_test_top.env.scb [apb_scoreboard] READ: addr=0x00090004, data=0x00000000, read_count=82
# UVM_INFO ../seq/base_seq.sv(38) @ 4105000: uvm_test_top.env.agent.sequencer@@onehot_sequence [onehot_seq] Sending write transaction - ADDR: 0x00090004, DATA: 0x00200000, STRB: 0xf
# Waiting for transaction...
# UVM_INFO ../model/Environment/apb_m_monitor.sv(73) @ 4135000: uvm_test_top.env.agent.monitor [apb_m_monitor] Write transaction captured: addr=0x00090004, data=0x00200000, strb=0xf
# UVM_INFO ../model/Environment/scoreboard.sv(36) @ 4135000: uvm_test_top.env.scb [apb_scoreboard] WRITE: addr=0x00090004, data=0x00200000, strb=0xf, write_count=54
# Waiting for transaction...
# UVM_INFO ../model/Environment/apb_m_monitor.sv(76) @ 4165000: uvm_test_top.env.agent.monitor [apb_m_monitor] Read transaction captured: addr=0x00090004, data=0x00000000
# UVM_INFO ../model/Environment/scoreboard.sv(62) @ 4165000: uvm_test_top.env.scb [apb_scoreboard] READ: addr=0x00090004, data=0x00000000, read_count=83
# UVM_INFO ../seq/base_seq.sv(38) @ 4165000: uvm_test_top.env.agent.sequencer@@onehot_sequence [onehot_seq] Sending write transaction - ADDR: 0x00090004, DATA: 0x00400000, STRB: 0xf
# Waiting for transaction...
# UVM_INFO ../model/Environment/apb_m_monitor.sv(73) @ 4195000: uvm_test_top.env.agent.monitor [apb_m_monitor] Write transaction captured: addr=0x00090004, data=0x00400000, strb=0xf
# UVM_INFO ../model/Environment/scoreboard.sv(36) @ 4195000: uvm_test_top.env.scb [apb_scoreboard] WRITE: addr=0x00090004, data=0x00400000, strb=0xf, write_count=55
# Waiting for transaction...
# UVM_INFO ../model/Environment/apb_m_monitor.sv(76) @ 4225000: uvm_test_top.env.agent.monitor [apb_m_monitor] Read transaction captured: addr=0x00090004, data=0x00000000
# UVM_INFO ../model/Environment/scoreboard.sv(62) @ 4225000: uvm_test_top.env.scb [apb_scoreboard] READ: addr=0x00090004, data=0x00000000, read_count=84
# UVM_INFO ../seq/base_seq.sv(38) @ 4225000: uvm_test_top.env.agent.sequencer@@onehot_sequence [onehot_seq] Sending write transaction - ADDR: 0x00090004, DATA: 0x00800000, STRB: 0xf
# Waiting for transaction...
# UVM_INFO ../model/Environment/apb_m_monitor.sv(73) @ 4255000: uvm_test_top.env.agent.monitor [apb_m_monitor] Write transaction captured: addr=0x00090004, data=0x00800000, strb=0xf
# UVM_INFO ../model/Environment/scoreboard.sv(36) @ 4255000: uvm_test_top.env.scb [apb_scoreboard] WRITE: addr=0x00090004, data=0x00800000, strb=0xf, write_count=56
# Waiting for transaction...
# UVM_INFO ../model/Environment/apb_m_monitor.sv(76) @ 4285000: uvm_test_top.env.agent.monitor [apb_m_monitor] Read transaction captured: addr=0x00090004, data=0x00000000
# UVM_INFO ../model/Environment/scoreboard.sv(62) @ 4285000: uvm_test_top.env.scb [apb_scoreboard] READ: addr=0x00090004, data=0x00000000, read_count=85
# UVM_INFO ../seq/base_seq.sv(38) @ 4285000: uvm_test_top.env.agent.sequencer@@onehot_sequence [onehot_seq] Sending write transaction - ADDR: 0x00090004, DATA: 0x01000000, STRB: 0xf
# Waiting for transaction...
# UVM_INFO ../model/Environment/apb_m_monitor.sv(73) @ 4315000: uvm_test_top.env.agent.monitor [apb_m_monitor] Write transaction captured: addr=0x00090004, data=0x01000000, strb=0xf
# UVM_INFO ../model/Environment/scoreboard.sv(36) @ 4315000: uvm_test_top.env.scb [apb_scoreboard] WRITE: addr=0x00090004, data=0x01000000, strb=0xf, write_count=57
# Waiting for transaction...
# UVM_INFO ../model/Environment/apb_m_monitor.sv(76) @ 4345000: uvm_test_top.env.agent.monitor [apb_m_monitor] Read transaction captured: addr=0x00090004, data=0x00000000
# UVM_INFO ../model/Environment/scoreboard.sv(62) @ 4345000: uvm_test_top.env.scb [apb_scoreboard] READ: addr=0x00090004, data=0x00000000, read_count=86
# UVM_INFO ../seq/base_seq.sv(38) @ 4345000: uvm_test_top.env.agent.sequencer@@onehot_sequence [onehot_seq] Sending write transaction - ADDR: 0x00090004, DATA: 0x02000000, STRB: 0xf
# Waiting for transaction...
# UVM_INFO ../model/Environment/apb_m_monitor.sv(73) @ 4375000: uvm_test_top.env.agent.monitor [apb_m_monitor] Write transaction captured: addr=0x00090004, data=0x02000000, strb=0xf
# UVM_INFO ../model/Environment/scoreboard.sv(36) @ 4375000: uvm_test_top.env.scb [apb_scoreboard] WRITE: addr=0x00090004, data=0x02000000, strb=0xf, write_count=58
# Waiting for transaction...
# UVM_INFO ../model/Environment/apb_m_monitor.sv(76) @ 4405000: uvm_test_top.env.agent.monitor [apb_m_monitor] Read transaction captured: addr=0x00090004, data=0x00000000
# UVM_INFO ../model/Environment/scoreboard.sv(62) @ 4405000: uvm_test_top.env.scb [apb_scoreboard] READ: addr=0x00090004, data=0x00000000, read_count=87
# UVM_INFO ../seq/base_seq.sv(38) @ 4405000: uvm_test_top.env.agent.sequencer@@onehot_sequence [onehot_seq] Sending write transaction - ADDR: 0x00090004, DATA: 0x04000000, STRB: 0xf
# Waiting for transaction...
# UVM_INFO ../model/Environment/apb_m_monitor.sv(73) @ 4435000: uvm_test_top.env.agent.monitor [apb_m_monitor] Write transaction captured: addr=0x00090004, data=0x04000000, strb=0xf
# UVM_INFO ../model/Environment/scoreboard.sv(36) @ 4435000: uvm_test_top.env.scb [apb_scoreboard] WRITE: addr=0x00090004, data=0x04000000, strb=0xf, write_count=59
# Waiting for transaction...
# UVM_INFO ../model/Environment/apb_m_monitor.sv(76) @ 4465000: uvm_test_top.env.agent.monitor [apb_m_monitor] Read transaction captured: addr=0x00090004, data=0x00000000
# UVM_INFO ../model/Environment/scoreboard.sv(62) @ 4465000: uvm_test_top.env.scb [apb_scoreboard] READ: addr=0x00090004, data=0x00000000, read_count=88
# UVM_INFO ../seq/base_seq.sv(38) @ 4465000: uvm_test_top.env.agent.sequencer@@onehot_sequence [onehot_seq] Sending write transaction - ADDR: 0x00090004, DATA: 0x08000000, STRB: 0xf
# Waiting for transaction...
# UVM_INFO ../model/Environment/apb_m_monitor.sv(73) @ 4495000: uvm_test_top.env.agent.monitor [apb_m_monitor] Write transaction captured: addr=0x00090004, data=0x08000000, strb=0xf
# UVM_INFO ../model/Environment/scoreboard.sv(36) @ 4495000: uvm_test_top.env.scb [apb_scoreboard] WRITE: addr=0x00090004, data=0x08000000, strb=0xf, write_count=60
# Waiting for transaction...
# UVM_INFO ../model/Environment/apb_m_monitor.sv(76) @ 4525000: uvm_test_top.env.agent.monitor [apb_m_monitor] Read transaction captured: addr=0x00090004, data=0x00000000
# UVM_INFO ../model/Environment/scoreboard.sv(62) @ 4525000: uvm_test_top.env.scb [apb_scoreboard] READ: addr=0x00090004, data=0x00000000, read_count=89
# UVM_INFO ../seq/base_seq.sv(38) @ 4525000: uvm_test_top.env.agent.sequencer@@onehot_sequence [onehot_seq] Sending write transaction - ADDR: 0x00090004, DATA: 0x10000000, STRB: 0xf
# Waiting for transaction...
# UVM_INFO ../model/Environment/apb_m_monitor.sv(73) @ 4555000: uvm_test_top.env.agent.monitor [apb_m_monitor] Write transaction captured: addr=0x00090004, data=0x10000000, strb=0xf
# UVM_INFO ../model/Environment/scoreboard.sv(36) @ 4555000: uvm_test_top.env.scb [apb_scoreboard] WRITE: addr=0x00090004, data=0x10000000, strb=0xf, write_count=61
# Waiting for transaction...
# UVM_INFO ../model/Environment/apb_m_monitor.sv(76) @ 4585000: uvm_test_top.env.agent.monitor [apb_m_monitor] Read transaction captured: addr=0x00090004, data=0x00000000
# UVM_INFO ../model/Environment/scoreboard.sv(62) @ 4585000: uvm_test_top.env.scb [apb_scoreboard] READ: addr=0x00090004, data=0x00000000, read_count=90
# UVM_INFO ../seq/base_seq.sv(38) @ 4585000: uvm_test_top.env.agent.sequencer@@onehot_sequence [onehot_seq] Sending write transaction - ADDR: 0x00090004, DATA: 0x20000000, STRB: 0xf
# Waiting for transaction...
# UVM_INFO ../model/Environment/apb_m_monitor.sv(73) @ 4615000: uvm_test_top.env.agent.monitor [apb_m_monitor] Write transaction captured: addr=0x00090004, data=0x20000000, strb=0xf
# UVM_INFO ../model/Environment/scoreboard.sv(36) @ 4615000: uvm_test_top.env.scb [apb_scoreboard] WRITE: addr=0x00090004, data=0x20000000, strb=0xf, write_count=62
# Waiting for transaction...
# UVM_INFO ../model/Environment/apb_m_monitor.sv(76) @ 4645000: uvm_test_top.env.agent.monitor [apb_m_monitor] Read transaction captured: addr=0x00090004, data=0x00000000
# UVM_INFO ../model/Environment/scoreboard.sv(62) @ 4645000: uvm_test_top.env.scb [apb_scoreboard] READ: addr=0x00090004, data=0x00000000, read_count=91
# UVM_INFO ../seq/base_seq.sv(38) @ 4645000: uvm_test_top.env.agent.sequencer@@onehot_sequence [onehot_seq] Sending write transaction - ADDR: 0x00090004, DATA: 0x40000000, STRB: 0xf
# Waiting for transaction...
# UVM_INFO ../model/Environment/apb_m_monitor.sv(73) @ 4675000: uvm_test_top.env.agent.monitor [apb_m_monitor] Write transaction captured: addr=0x00090004, data=0x40000000, strb=0xf
# UVM_INFO ../model/Environment/scoreboard.sv(36) @ 4675000: uvm_test_top.env.scb [apb_scoreboard] WRITE: addr=0x00090004, data=0x40000000, strb=0xf, write_count=63
# Waiting for transaction...
# UVM_INFO ../model/Environment/apb_m_monitor.sv(76) @ 4705000: uvm_test_top.env.agent.monitor [apb_m_monitor] Read transaction captured: addr=0x00090004, data=0x00000000
# UVM_INFO ../model/Environment/scoreboard.sv(62) @ 4705000: uvm_test_top.env.scb [apb_scoreboard] READ: addr=0x00090004, data=0x00000000, read_count=92
# UVM_INFO ../seq/base_seq.sv(38) @ 4705000: uvm_test_top.env.agent.sequencer@@onehot_sequence [onehot_seq] Sending write transaction - ADDR: 0x00090004, DATA: 0x80000000, STRB: 0xf
# Waiting for transaction...
# UVM_INFO ../model/Environment/apb_m_monitor.sv(73) @ 4735000: uvm_test_top.env.agent.monitor [apb_m_monitor] Write transaction captured: addr=0x00090004, data=0x80000000, strb=0xf
# UVM_INFO ../model/Environment/scoreboard.sv(36) @ 4735000: uvm_test_top.env.scb [apb_scoreboard] WRITE: addr=0x00090004, data=0x80000000, strb=0xf, write_count=64
# Waiting for transaction...
# UVM_INFO ../model/Environment/apb_m_monitor.sv(76) @ 4765000: uvm_test_top.env.agent.monitor [apb_m_monitor] Read transaction captured: addr=0x00090004, data=0x00000000
# UVM_INFO ../model/Environment/scoreboard.sv(62) @ 4765000: uvm_test_top.env.scb [apb_scoreboard] READ: addr=0x00090004, data=0x00000000, read_count=93
# UVM_INFO ../seq/base_seq.sv(38) @ 4765000: uvm_test_top.env.agent.sequencer@@onehot_sequence [onehot_seq] Sending write transaction - ADDR: 0x00090008, DATA: 0x00000001, STRB: 0xf
# Waiting for transaction...
# UVM_INFO ../model/Environment/apb_m_monitor.sv(73) @ 4795000: uvm_test_top.env.agent.monitor [apb_m_monitor] Write transaction captured: addr=0x00090008, data=0x00000001, strb=0xf
# UVM_INFO ../model/Environment/scoreboard.sv(36) @ 4795000: uvm_test_top.env.scb [apb_scoreboard] WRITE: addr=0x00090008, data=0x00000001, strb=0xf, write_count=65
# Waiting for transaction...
# UVM_INFO ../model/Environment/apb_m_monitor.sv(76) @ 4825000: uvm_test_top.env.agent.monitor [apb_m_monitor] Read transaction captured: addr=0x00090008, data=0x00000001
# UVM_INFO ../model/Environment/scoreboard.sv(62) @ 4825000: uvm_test_top.env.scb [apb_scoreboard] READ: addr=0x00090008, data=0x00000001, read_count=94
# UVM_INFO ../seq/base_seq.sv(38) @ 4825000: uvm_test_top.env.agent.sequencer@@onehot_sequence [onehot_seq] Sending write transaction - ADDR: 0x00090008, DATA: 0x00000002, STRB: 0xf
# Waiting for transaction...
# UVM_INFO ../model/Environment/apb_m_monitor.sv(73) @ 4855000: uvm_test_top.env.agent.monitor [apb_m_monitor] Write transaction captured: addr=0x00090008, data=0x00000002, strb=0xf
# UVM_INFO ../model/Environment/scoreboard.sv(36) @ 4855000: uvm_test_top.env.scb [apb_scoreboard] WRITE: addr=0x00090008, data=0x00000002, strb=0xf, write_count=66
# Waiting for transaction...
# UVM_INFO ../model/Environment/apb_m_monitor.sv(76) @ 4885000: uvm_test_top.env.agent.monitor [apb_m_monitor] Read transaction captured: addr=0x00090008, data=0x00000002
# UVM_INFO ../model/Environment/scoreboard.sv(62) @ 4885000: uvm_test_top.env.scb [apb_scoreboard] READ: addr=0x00090008, data=0x00000002, read_count=95
# UVM_INFO ../seq/base_seq.sv(38) @ 4885000: uvm_test_top.env.agent.sequencer@@onehot_sequence [onehot_seq] Sending write transaction - ADDR: 0x00090008, DATA: 0x00000004, STRB: 0xf
# Waiting for transaction...
# UVM_INFO ../model/Environment/apb_m_monitor.sv(73) @ 4915000: uvm_test_top.env.agent.monitor [apb_m_monitor] Write transaction captured: addr=0x00090008, data=0x00000004, strb=0xf
# UVM_INFO ../model/Environment/scoreboard.sv(36) @ 4915000: uvm_test_top.env.scb [apb_scoreboard] WRITE: addr=0x00090008, data=0x00000004, strb=0xf, write_count=67
# Waiting for transaction...
# UVM_INFO ../model/Environment/apb_m_monitor.sv(76) @ 4945000: uvm_test_top.env.agent.monitor [apb_m_monitor] Read transaction captured: addr=0x00090008, data=0x00000004
# UVM_INFO ../model/Environment/scoreboard.sv(62) @ 4945000: uvm_test_top.env.scb [apb_scoreboard] READ: addr=0x00090008, data=0x00000004, read_count=96
# UVM_INFO ../seq/base_seq.sv(38) @ 4945000: uvm_test_top.env.agent.sequencer@@onehot_sequence [onehot_seq] Sending write transaction - ADDR: 0x00090008, DATA: 0x00000008, STRB: 0xf
# Waiting for transaction...
# UVM_INFO ../model/Environment/apb_m_monitor.sv(73) @ 4975000: uvm_test_top.env.agent.monitor [apb_m_monitor] Write transaction captured: addr=0x00090008, data=0x00000008, strb=0xf
# UVM_INFO ../model/Environment/scoreboard.sv(36) @ 4975000: uvm_test_top.env.scb [apb_scoreboard] WRITE: addr=0x00090008, data=0x00000008, strb=0xf, write_count=68
# Waiting for transaction...
# UVM_INFO ../model/Environment/apb_m_monitor.sv(76) @ 5005000: uvm_test_top.env.agent.monitor [apb_m_monitor] Read transaction captured: addr=0x00090008, data=0x00000008
# UVM_INFO ../model/Environment/scoreboard.sv(62) @ 5005000: uvm_test_top.env.scb [apb_scoreboard] READ: addr=0x00090008, data=0x00000008, read_count=97
# UVM_INFO ../seq/base_seq.sv(38) @ 5005000: uvm_test_top.env.agent.sequencer@@onehot_sequence [onehot_seq] Sending write transaction - ADDR: 0x00090008, DATA: 0x00000010, STRB: 0xf
# Waiting for transaction...
# UVM_INFO ../model/Environment/apb_m_monitor.sv(73) @ 5035000: uvm_test_top.env.agent.monitor [apb_m_monitor] Write transaction captured: addr=0x00090008, data=0x00000010, strb=0xf
# UVM_INFO ../model/Environment/scoreboard.sv(36) @ 5035000: uvm_test_top.env.scb [apb_scoreboard] WRITE: addr=0x00090008, data=0x00000010, strb=0xf, write_count=69
# Waiting for transaction...
# UVM_INFO ../model/Environment/apb_m_monitor.sv(76) @ 5065000: uvm_test_top.env.agent.monitor [apb_m_monitor] Read transaction captured: addr=0x00090008, data=0x00000010
# UVM_INFO ../model/Environment/scoreboard.sv(62) @ 5065000: uvm_test_top.env.scb [apb_scoreboard] READ: addr=0x00090008, data=0x00000010, read_count=98
# UVM_INFO ../seq/base_seq.sv(38) @ 5065000: uvm_test_top.env.agent.sequencer@@onehot_sequence [onehot_seq] Sending write transaction - ADDR: 0x00090008, DATA: 0x00000020, STRB: 0xf
# Waiting for transaction...
# UVM_INFO ../model/Environment/apb_m_monitor.sv(73) @ 5095000: uvm_test_top.env.agent.monitor [apb_m_monitor] Write transaction captured: addr=0x00090008, data=0x00000020, strb=0xf
# UVM_INFO ../model/Environment/scoreboard.sv(36) @ 5095000: uvm_test_top.env.scb [apb_scoreboard] WRITE: addr=0x00090008, data=0x00000020, strb=0xf, write_count=70
# Waiting for transaction...
# UVM_INFO ../model/Environment/apb_m_monitor.sv(76) @ 5125000: uvm_test_top.env.agent.monitor [apb_m_monitor] Read transaction captured: addr=0x00090008, data=0x00000020
# UVM_INFO ../model/Environment/scoreboard.sv(62) @ 5125000: uvm_test_top.env.scb [apb_scoreboard] READ: addr=0x00090008, data=0x00000020, read_count=99
# UVM_INFO ../seq/base_seq.sv(38) @ 5125000: uvm_test_top.env.agent.sequencer@@onehot_sequence [onehot_seq] Sending write transaction - ADDR: 0x00090008, DATA: 0x00000040, STRB: 0xf
# Waiting for transaction...
# UVM_INFO ../model/Environment/apb_m_monitor.sv(73) @ 5155000: uvm_test_top.env.agent.monitor [apb_m_monitor] Write transaction captured: addr=0x00090008, data=0x00000040, strb=0xf
# UVM_INFO ../model/Environment/scoreboard.sv(36) @ 5155000: uvm_test_top.env.scb [apb_scoreboard] WRITE: addr=0x00090008, data=0x00000040, strb=0xf, write_count=71
# Waiting for transaction...
# UVM_INFO ../model/Environment/apb_m_monitor.sv(76) @ 5185000: uvm_test_top.env.agent.monitor [apb_m_monitor] Read transaction captured: addr=0x00090008, data=0x00000040
# UVM_INFO ../model/Environment/scoreboard.sv(62) @ 5185000: uvm_test_top.env.scb [apb_scoreboard] READ: addr=0x00090008, data=0x00000040, read_count=100
# UVM_INFO ../seq/base_seq.sv(38) @ 5185000: uvm_test_top.env.agent.sequencer@@onehot_sequence [onehot_seq] Sending write transaction - ADDR: 0x00090008, DATA: 0x00000080, STRB: 0xf
# Waiting for transaction...
# UVM_INFO ../model/Environment/apb_m_monitor.sv(73) @ 5215000: uvm_test_top.env.agent.monitor [apb_m_monitor] Write transaction captured: addr=0x00090008, data=0x00000080, strb=0xf
# UVM_INFO ../model/Environment/scoreboard.sv(36) @ 5215000: uvm_test_top.env.scb [apb_scoreboard] WRITE: addr=0x00090008, data=0x00000080, strb=0xf, write_count=72
# Waiting for transaction...
# UVM_INFO ../model/Environment/apb_m_monitor.sv(76) @ 5245000: uvm_test_top.env.agent.monitor [apb_m_monitor] Read transaction captured: addr=0x00090008, data=0x00000080
# UVM_INFO ../model/Environment/scoreboard.sv(62) @ 5245000: uvm_test_top.env.scb [apb_scoreboard] READ: addr=0x00090008, data=0x00000080, read_count=101
# UVM_INFO ../seq/base_seq.sv(38) @ 5245000: uvm_test_top.env.agent.sequencer@@onehot_sequence [onehot_seq] Sending write transaction - ADDR: 0x00090008, DATA: 0x00000100, STRB: 0xf
# Waiting for transaction...
# UVM_INFO ../model/Environment/apb_m_monitor.sv(73) @ 5275000: uvm_test_top.env.agent.monitor [apb_m_monitor] Write transaction captured: addr=0x00090008, data=0x00000100, strb=0xf
# UVM_INFO ../model/Environment/scoreboard.sv(36) @ 5275000: uvm_test_top.env.scb [apb_scoreboard] WRITE: addr=0x00090008, data=0x00000100, strb=0xf, write_count=73
# Waiting for transaction...
# UVM_INFO ../model/Environment/apb_m_monitor.sv(76) @ 5305000: uvm_test_top.env.agent.monitor [apb_m_monitor] Read transaction captured: addr=0x00090008, data=0x00000100
# UVM_INFO ../model/Environment/scoreboard.sv(62) @ 5305000: uvm_test_top.env.scb [apb_scoreboard] READ: addr=0x00090008, data=0x00000100, read_count=102
# UVM_INFO ../seq/base_seq.sv(38) @ 5305000: uvm_test_top.env.agent.sequencer@@onehot_sequence [onehot_seq] Sending write transaction - ADDR: 0x00090008, DATA: 0x00000200, STRB: 0xf
# Waiting for transaction...
# UVM_INFO ../model/Environment/apb_m_monitor.sv(73) @ 5335000: uvm_test_top.env.agent.monitor [apb_m_monitor] Write transaction captured: addr=0x00090008, data=0x00000200, strb=0xf
# UVM_INFO ../model/Environment/scoreboard.sv(36) @ 5335000: uvm_test_top.env.scb [apb_scoreboard] WRITE: addr=0x00090008, data=0x00000200, strb=0xf, write_count=74
# Waiting for transaction...
# UVM_INFO ../model/Environment/apb_m_monitor.sv(76) @ 5365000: uvm_test_top.env.agent.monitor [apb_m_monitor] Read transaction captured: addr=0x00090008, data=0x00000200
# UVM_INFO ../model/Environment/scoreboard.sv(62) @ 5365000: uvm_test_top.env.scb [apb_scoreboard] READ: addr=0x00090008, data=0x00000200, read_count=103
# UVM_INFO ../seq/base_seq.sv(38) @ 5365000: uvm_test_top.env.agent.sequencer@@onehot_sequence [onehot_seq] Sending write transaction - ADDR: 0x00090008, DATA: 0x00000400, STRB: 0xf
# Waiting for transaction...
# UVM_INFO ../model/Environment/apb_m_monitor.sv(73) @ 5395000: uvm_test_top.env.agent.monitor [apb_m_monitor] Write transaction captured: addr=0x00090008, data=0x00000400, strb=0xf
# UVM_INFO ../model/Environment/scoreboard.sv(36) @ 5395000: uvm_test_top.env.scb [apb_scoreboard] WRITE: addr=0x00090008, data=0x00000400, strb=0xf, write_count=75
# Waiting for transaction...
# UVM_INFO ../model/Environment/apb_m_monitor.sv(76) @ 5425000: uvm_test_top.env.agent.monitor [apb_m_monitor] Read transaction captured: addr=0x00090008, data=0x00000400
# UVM_INFO ../model/Environment/scoreboard.sv(62) @ 5425000: uvm_test_top.env.scb [apb_scoreboard] READ: addr=0x00090008, data=0x00000400, read_count=104
# UVM_INFO ../seq/base_seq.sv(38) @ 5425000: uvm_test_top.env.agent.sequencer@@onehot_sequence [onehot_seq] Sending write transaction - ADDR: 0x00090008, DATA: 0x00000800, STRB: 0xf
# Waiting for transaction...
# UVM_INFO ../model/Environment/apb_m_monitor.sv(73) @ 5455000: uvm_test_top.env.agent.monitor [apb_m_monitor] Write transaction captured: addr=0x00090008, data=0x00000800, strb=0xf
# UVM_INFO ../model/Environment/scoreboard.sv(36) @ 5455000: uvm_test_top.env.scb [apb_scoreboard] WRITE: addr=0x00090008, data=0x00000800, strb=0xf, write_count=76
# Waiting for transaction...
# UVM_INFO ../model/Environment/apb_m_monitor.sv(76) @ 5485000: uvm_test_top.env.agent.monitor [apb_m_monitor] Read transaction captured: addr=0x00090008, data=0x00000800
# UVM_INFO ../model/Environment/scoreboard.sv(62) @ 5485000: uvm_test_top.env.scb [apb_scoreboard] READ: addr=0x00090008, data=0x00000800, read_count=105
# UVM_INFO ../seq/base_seq.sv(38) @ 5485000: uvm_test_top.env.agent.sequencer@@onehot_sequence [onehot_seq] Sending write transaction - ADDR: 0x00090008, DATA: 0x00001000, STRB: 0xf
# Waiting for transaction...
# UVM_INFO ../model/Environment/apb_m_monitor.sv(73) @ 5515000: uvm_test_top.env.agent.monitor [apb_m_monitor] Write transaction captured: addr=0x00090008, data=0x00001000, strb=0xf
# UVM_INFO ../model/Environment/scoreboard.sv(36) @ 5515000: uvm_test_top.env.scb [apb_scoreboard] WRITE: addr=0x00090008, data=0x00001000, strb=0xf, write_count=77
# Waiting for transaction...
# UVM_INFO ../model/Environment/apb_m_monitor.sv(76) @ 5545000: uvm_test_top.env.agent.monitor [apb_m_monitor] Read transaction captured: addr=0x00090008, data=0x00001000
# UVM_INFO ../model/Environment/scoreboard.sv(62) @ 5545000: uvm_test_top.env.scb [apb_scoreboard] READ: addr=0x00090008, data=0x00001000, read_count=106
# UVM_INFO ../seq/base_seq.sv(38) @ 5545000: uvm_test_top.env.agent.sequencer@@onehot_sequence [onehot_seq] Sending write transaction - ADDR: 0x00090008, DATA: 0x00002000, STRB: 0xf
# Waiting for transaction...
# UVM_INFO ../model/Environment/apb_m_monitor.sv(73) @ 5575000: uvm_test_top.env.agent.monitor [apb_m_monitor] Write transaction captured: addr=0x00090008, data=0x00002000, strb=0xf
# UVM_INFO ../model/Environment/scoreboard.sv(36) @ 5575000: uvm_test_top.env.scb [apb_scoreboard] WRITE: addr=0x00090008, data=0x00002000, strb=0xf, write_count=78
# Waiting for transaction...
# UVM_INFO ../model/Environment/apb_m_monitor.sv(76) @ 5605000: uvm_test_top.env.agent.monitor [apb_m_monitor] Read transaction captured: addr=0x00090008, data=0x00002000
# UVM_INFO ../model/Environment/scoreboard.sv(62) @ 5605000: uvm_test_top.env.scb [apb_scoreboard] READ: addr=0x00090008, data=0x00002000, read_count=107
# UVM_INFO ../seq/base_seq.sv(38) @ 5605000: uvm_test_top.env.agent.sequencer@@onehot_sequence [onehot_seq] Sending write transaction - ADDR: 0x00090008, DATA: 0x00004000, STRB: 0xf
# Waiting for transaction...
# UVM_INFO ../model/Environment/apb_m_monitor.sv(73) @ 5635000: uvm_test_top.env.agent.monitor [apb_m_monitor] Write transaction captured: addr=0x00090008, data=0x00004000, strb=0xf
# UVM_INFO ../model/Environment/scoreboard.sv(36) @ 5635000: uvm_test_top.env.scb [apb_scoreboard] WRITE: addr=0x00090008, data=0x00004000, strb=0xf, write_count=79
# Waiting for transaction...
# UVM_INFO ../model/Environment/apb_m_monitor.sv(76) @ 5665000: uvm_test_top.env.agent.monitor [apb_m_monitor] Read transaction captured: addr=0x00090008, data=0x00004000
# UVM_INFO ../model/Environment/scoreboard.sv(62) @ 5665000: uvm_test_top.env.scb [apb_scoreboard] READ: addr=0x00090008, data=0x00004000, read_count=108
# UVM_INFO ../seq/base_seq.sv(38) @ 5665000: uvm_test_top.env.agent.sequencer@@onehot_sequence [onehot_seq] Sending write transaction - ADDR: 0x00090008, DATA: 0x00008000, STRB: 0xf
# Waiting for transaction...
# UVM_INFO ../model/Environment/apb_m_monitor.sv(73) @ 5695000: uvm_test_top.env.agent.monitor [apb_m_monitor] Write transaction captured: addr=0x00090008, data=0x00008000, strb=0xf
# UVM_INFO ../model/Environment/scoreboard.sv(36) @ 5695000: uvm_test_top.env.scb [apb_scoreboard] WRITE: addr=0x00090008, data=0x00008000, strb=0xf, write_count=80
# Waiting for transaction...
# UVM_INFO ../model/Environment/apb_m_monitor.sv(76) @ 5725000: uvm_test_top.env.agent.monitor [apb_m_monitor] Read transaction captured: addr=0x00090008, data=0x00008000
# UVM_INFO ../model/Environment/scoreboard.sv(62) @ 5725000: uvm_test_top.env.scb [apb_scoreboard] READ: addr=0x00090008, data=0x00008000, read_count=109
# UVM_INFO ../seq/base_seq.sv(38) @ 5725000: uvm_test_top.env.agent.sequencer@@onehot_sequence [onehot_seq] Sending write transaction - ADDR: 0x00090008, DATA: 0x00010000, STRB: 0xf
# Waiting for transaction...
# UVM_INFO ../model/Environment/apb_m_monitor.sv(73) @ 5755000: uvm_test_top.env.agent.monitor [apb_m_monitor] Write transaction captured: addr=0x00090008, data=0x00010000, strb=0xf
# UVM_INFO ../model/Environment/scoreboard.sv(36) @ 5755000: uvm_test_top.env.scb [apb_scoreboard] WRITE: addr=0x00090008, data=0x00010000, strb=0xf, write_count=81
# Waiting for transaction...
# UVM_INFO ../model/Environment/apb_m_monitor.sv(76) @ 5785000: uvm_test_top.env.agent.monitor [apb_m_monitor] Read transaction captured: addr=0x00090008, data=0x00000000
# UVM_INFO ../model/Environment/scoreboard.sv(62) @ 5785000: uvm_test_top.env.scb [apb_scoreboard] READ: addr=0x00090008, data=0x00000000, read_count=110
# UVM_INFO ../seq/base_seq.sv(38) @ 5785000: uvm_test_top.env.agent.sequencer@@onehot_sequence [onehot_seq] Sending write transaction - ADDR: 0x00090008, DATA: 0x00020000, STRB: 0xf
# Waiting for transaction...
# UVM_INFO ../model/Environment/apb_m_monitor.sv(73) @ 5815000: uvm_test_top.env.agent.monitor [apb_m_monitor] Write transaction captured: addr=0x00090008, data=0x00020000, strb=0xf
# UVM_INFO ../model/Environment/scoreboard.sv(36) @ 5815000: uvm_test_top.env.scb [apb_scoreboard] WRITE: addr=0x00090008, data=0x00020000, strb=0xf, write_count=82
# Waiting for transaction...
