# vsim -c work.top "+UVM_VERBOSITY=UVM_HIGH" -voptargs="+acc" -assertdebug -debugDB "+UVM_TESTNAME=top_test" -do "log -r /*; run -all; quit" 
# Start time: 10:27:38 on Sep 20,2025
# ** Note: (vsim-3813) Design is being optimized due to module recompilation...
# ** Note: (vsim-8611) Generating debug db.
# ** Warning: testbench.sv(50): (vopt-2685) [TFMPC] - Too few port connections for 'dut'.  Expected 12, found 10.
# ** Warning: testbench.sv(50): (vopt-2718) [TFMPC] - Missing connection for port 'SCL'.
# ** Warning: testbench.sv(50): (vopt-2718) [TFMPC] - Missing connection for port 'SDA'.
# ** Note: (vsim-12126) Error and warning message counts have been restored: Errors=0, Warnings=3.
# //  Questa Sim-64
# //  Version 2021.2_1 linux_x86_64 May 15 2021
# //
# //  Copyright 1991-2021 Mentor Graphics Corporation
# //  All Rights Reserved.
# //
# //  QuestaSim and its associated documentation contain trade
# //  secrets and commercial or financial information that are the property of
# //  Mentor Graphics Corporation and are privileged, confidential,
# //  and exempt from disclosure under the Freedom of Information Act,
# //  5 U.S.C. Section 552. Furthermore, this information
# //  is prohibited from disclosure under the Trade Secrets Act,
# //  18 U.S.C. Section 1905.
# //
# Loading sv_std.std
# Loading mtiUvm.uvm_pkg(fast)
# Loading work.testbench_sv_unit(fast)
# Loading mtiUvm.questa_uvm_pkg(fast)
# Loading work.top(fast)
# Loading work.apb_if(fast__2)
# Loading work.apb_ram(fast)
# Loading work.apb_if(fast)
# Loading /home/tai/Desktop/Questa/questasim/uvm-1.1d/linux_x86_64/uvm_dpi.so
# ** Note: (vsim-8900) Creating design debug database vsim.dbg.
# log -r /*
#  run -all
# ----------------------------------------------------------------
# UVM-1.1d
# (C) 2007-2013 Mentor Graphics Corporation
# (C) 2007-2013 Cadence Design Systems, Inc.
# (C) 2006-2013 Synopsys, Inc.
# (C) 2011-2013 Cypress Semiconductor Corp.
# ----------------------------------------------------------------
# 
#   ***********       IMPORTANT RELEASE NOTES         ************
# 
#   You are using a version of the UVM library that has been compiled
#   with `UVM_NO_DEPRECATED undefined.
#   See http://www.eda.org/svdb/view.php?id=3313 for more details.
# 
#   You are using a version of the UVM library that has been compiled
#   with `UVM_OBJECT_MUST_HAVE_CONSTRUCTOR undefined.
#   See http://www.eda.org/svdb/view.php?id=3770 for more details.
# 
#       (Specify +UVM_NO_RELNOTES to turn off this notice)
# 
# UVM_INFO verilog_src/questa_uvm_pkg-1.2/src/questa_uvm_pkg.sv(277) @ 0: reporter [Questa UVM] QUESTA_UVM-1.2.3
# UVM_INFO verilog_src/questa_uvm_pkg-1.2/src/questa_uvm_pkg.sv(278) @ 0: reporter [Questa UVM]  questa_uvm::init(+struct)
# UVM_INFO @ 0: reporter [RNTST] Running test top_test...
# UVM_INFO base_test.sv(13) @ 0: uvm_test_top [build_phase] i2c_base_test BUILD-FLOW: Finishing...
# UVM_INFO @ 0: reporter [UVMTOP] UVM testbench topology:
# --------------------------------------------------------------
# Name                       Type                    Size  Value
# --------------------------------------------------------------
# uvm_test_top               top_test                -     @471 
#   e                        base_env                -     @478 
#     a                      base_agent              -     @489 
#       d                    base_driver             -     @519 
#         rsp_port           uvm_analysis_port       -     @534 
#         seq_item_port      uvm_seq_item_pull_port  -     @526 
#       m_r                  base_monitor_r          -     @512 
#         send_r             uvm_analysis_port       -     @660 
#       m_w                  base_monitor_w          -     @505 
#         send_w             uvm_analysis_port       -     @673 
#       seqr                 uvm_sequencer           -     @542 
#         rsp_export         uvm_analysis_export     -     @549 
#         seq_item_export    uvm_seq_item_pull_imp   -     @643 
#         arbitration_queue  array                   0     -    
#         lock_queue         array                   0     -    
#         num_last_reqs      integral                32    'd1  
#         num_last_rsps      integral                32    'd1  
#     sb                     base_scoreboard         -     @496 
#       PR                   uvm_analysis_imp_R      -     @695 
#       PW                   uvm_analysis_imp_W      -     @687 
# --------------------------------------------------------------
# 
# UVM_INFO verilog_src/questa_uvm_pkg-1.2/src/questa_uvm_pkg.sv(339) @ 0: reporter [Questa UVM] End Of Elaboration
# UVM_INFO base_driver.sv(25) @ 0: uvm_test_top.e.a.d [base_driver] System Reset : Start of Simulation
# UVM_INFO base_driver.sv(25) @ 10000: uvm_test_top.e.a.d [base_driver] System Reset : Start of Simulation
# UVM_INFO base_monitor.sv(61) @ 10000: uvm_test_top.e.a.m_r [base_monitor] SYSTEM RESET DETECTED
# UVM_INFO base_scoreboard.sv(59) @ 10000: uvm_test_top.e.sb [SCB READ PORT] RESET received => clear read_q
# UVM_INFO base_monitor.sv(23) @ 10000: uvm_test_top.e.a.m_w [base_monitor] SYSTEM RESET DETECTED
# UVM_INFO base_scoreboard.sv(38) @ 10000: uvm_test_top.e.sb [SCB WRITE PORT] RESET received => clear write_q
# UVM_INFO base_monitor.sv(23) @ 20000: uvm_test_top.e.a.m_w [base_monitor] SYSTEM RESET DETECTED
# UVM_INFO base_scoreboard.sv(38) @ 20000: uvm_test_top.e.sb [SCB WRITE PORT] RESET received => clear write_q
# UVM_INFO base_monitor.sv(61) @ 20000: uvm_test_top.e.a.m_r [base_monitor] SYSTEM RESET DETECTED
# UVM_INFO base_scoreboard.sv(59) @ 20000: uvm_test_top.e.sb [SCB READ PORT] RESET received => clear read_q
# UVM_INFO base_driver.sv(25) @ 20000: uvm_test_top.e.a.d [base_driver] System Reset : Start of Simulation
# UVM_INFO base_driver.sv(25) @ 30000: uvm_test_top.e.a.d [base_driver] System Reset : Start of Simulation
# UVM_INFO base_monitor.sv(61) @ 30000: uvm_test_top.e.a.m_r [base_monitor] SYSTEM RESET DETECTED
# UVM_INFO base_scoreboard.sv(59) @ 30000: uvm_test_top.e.sb [SCB READ PORT] RESET received => clear read_q
# UVM_INFO base_monitor.sv(23) @ 30000: uvm_test_top.e.a.m_w [base_monitor] SYSTEM RESET DETECTED
# UVM_INFO base_scoreboard.sv(38) @ 30000: uvm_test_top.e.sb [SCB WRITE PORT] RESET received => clear write_q
# UVM_INFO base_monitor.sv(23) @ 40000: uvm_test_top.e.a.m_w [base_monitor] SYSTEM RESET DETECTED
# UVM_INFO base_scoreboard.sv(38) @ 40000: uvm_test_top.e.sb [SCB WRITE PORT] RESET received => clear write_q
# UVM_INFO base_monitor.sv(61) @ 40000: uvm_test_top.e.a.m_r [base_monitor] SYSTEM RESET DETECTED
# UVM_INFO base_scoreboard.sv(59) @ 40000: uvm_test_top.e.sb [SCB READ PORT] RESET received => clear read_q
# UVM_INFO base_driver.sv(25) @ 40000: uvm_test_top.e.a.d [base_driver] System Reset : Start of Simulation
# UVM_INFO base_monitor.sv(61) @ 50000: uvm_test_top.e.a.m_r [base_monitor] SYSTEM RESET DETECTED
# UVM_INFO base_scoreboard.sv(59) @ 50000: uvm_test_top.e.sb [SCB READ PORT] RESET received => clear read_q
# UVM_INFO base_monitor.sv(23) @ 50000: uvm_test_top.e.a.m_w [base_monitor] SYSTEM RESET DETECTED
# UVM_INFO base_scoreboard.sv(38) @ 50000: uvm_test_top.e.sb [SCB WRITE PORT] RESET received => clear write_q
# UVM_INFO base_scoreboard.sv(49) @ 90000: uvm_test_top.e.sb [SCB_DEBUG] Write_q: 1
# UVM_INFO base_scoreboard.sv(50) @ 90000: uvm_test_top.e.sb [SCB WRITE PORT] WRITE PKT
# --------------------------------------------
# Name       Type            Size  Value      
# --------------------------------------------
# item       base_item       -     @669       
#   PWRITE   integral        1     'h0X       
#   PWDATA   integral        32    'h435bd808 
#   PADDR    integral        5     'h13       
#   PREADY   integral        1     'h0X       
#   PSLVERR  integral        1     'h0        
#   PRDATA   integral        32    'h0xxxxxxxx
#   op       operation_mode  2     WRITE      
# --------------------------------------------
# UVM_INFO base_scoreboard.sv(49) @ 120000: uvm_test_top.e.sb [SCB_DEBUG] Write_q: 2
# UVM_INFO base_scoreboard.sv(50) @ 120000: uvm_test_top.e.sb [SCB WRITE PORT] WRITE PKT
# --------------------------------------------
# Name       Type            Size  Value      
# --------------------------------------------
# item       base_item       -     @669       
#   PWRITE   integral        1     'h0X       
#   PWDATA   integral        32    'hf523fbfd 
#   PADDR    integral        5     'h11       
#   PREADY   integral        1     'h0X       
#   PSLVERR  integral        1     'h0        
#   PRDATA   integral        32    'h0xxxxxxxx
#   op       operation_mode  2     WRITE      
# --------------------------------------------
# UVM_INFO base_scoreboard.sv(49) @ 150000: uvm_test_top.e.sb [SCB_DEBUG] Write_q: 3
# UVM_INFO base_scoreboard.sv(50) @ 150000: uvm_test_top.e.sb [SCB WRITE PORT] WRITE PKT
# --------------------------------------------
# Name       Type            Size  Value      
# --------------------------------------------
# item       base_item       -     @669       
#   PWRITE   integral        1     'h0X       
#   PWDATA   integral        32    'h42e65b45 
#   PADDR    integral        5     'h17       
#   PREADY   integral        1     'h0X       
#   PSLVERR  integral        1     'h0        
#   PRDATA   integral        32    'h0xxxxxxxx
#   op       operation_mode  2     WRITE      
# --------------------------------------------
# UVM_INFO base_scoreboard.sv(49) @ 180000: uvm_test_top.e.sb [SCB_DEBUG] Write_q: 4
# UVM_INFO base_scoreboard.sv(50) @ 180000: uvm_test_top.e.sb [SCB WRITE PORT] WRITE PKT
# --------------------------------------------
# Name       Type            Size  Value      
# --------------------------------------------
# item       base_item       -     @669       
#   PWRITE   integral        1     'h0X       
#   PWDATA   integral        32    'h4d4c7266 
#   PADDR    integral        5     'h15       
#   PREADY   integral        1     'h0X       
#   PSLVERR  integral        1     'h0        
#   PRDATA   integral        32    'h0xxxxxxxx
#   op       operation_mode  2     WRITE      
# --------------------------------------------
# UVM_INFO base_scoreboard.sv(49) @ 210000: uvm_test_top.e.sb [SCB_DEBUG] Write_q: 5
# UVM_INFO base_scoreboard.sv(50) @ 210000: uvm_test_top.e.sb [SCB WRITE PORT] WRITE PKT
# --------------------------------------------
# Name       Type            Size  Value      
# --------------------------------------------
# item       base_item       -     @669       
#   PWRITE   integral        1     'h0X       
#   PWDATA   integral        32    'ha76fa2b4 
#   PADDR    integral        5     'ha        
#   PREADY   integral        1     'h0X       
#   PSLVERR  integral        1     'h0        
#   PRDATA   integral        32    'h0xxxxxxxx
#   op       operation_mode  2     WRITE      
# --------------------------------------------
# UVM_INFO base_scoreboard.sv(49) @ 240000: uvm_test_top.e.sb [SCB_DEBUG] Write_q: 6
# UVM_INFO base_scoreboard.sv(50) @ 240000: uvm_test_top.e.sb [SCB WRITE PORT] WRITE PKT
# --------------------------------------------
# Name       Type            Size  Value      
# --------------------------------------------
# item       base_item       -     @669       
#   PWRITE   integral        1     'h0X       
#   PWDATA   integral        32    'h47a636d6 
#   PADDR    integral        5     'h8        
#   PREADY   integral        1     'h0X       
#   PSLVERR  integral        1     'h0        
#   PRDATA   integral        32    'h0xxxxxxxx
#   op       operation_mode  2     WRITE      
# --------------------------------------------
# UVM_INFO base_scoreboard.sv(49) @ 270000: uvm_test_top.e.sb [SCB_DEBUG] Write_q: 7
# UVM_INFO base_scoreboard.sv(50) @ 270000: uvm_test_top.e.sb [SCB WRITE PORT] WRITE PKT
# --------------------------------------------
# Name       Type            Size  Value      
# --------------------------------------------
# item       base_item       -     @669       
#   PWRITE   integral        1     'h0X       
#   PWDATA   integral        32    'ha6b7d64a 
#   PADDR    integral        5     'he        
#   PREADY   integral        1     'h0X       
#   PSLVERR  integral        1     'h0        
#   PRDATA   integral        32    'h0xxxxxxxx
#   op       operation_mode  2     WRITE      
# --------------------------------------------
# UVM_INFO base_scoreboard.sv(49) @ 300000: uvm_test_top.e.sb [SCB_DEBUG] Write_q: 8
# UVM_INFO base_scoreboard.sv(50) @ 300000: uvm_test_top.e.sb [SCB WRITE PORT] WRITE PKT
# --------------------------------------------
# Name       Type            Size  Value      
# --------------------------------------------
# item       base_item       -     @669       
#   PWRITE   integral        1     'h0X       
#   PWDATA   integral        32    'ha094049b 
#   PADDR    integral        5     'hc        
#   PREADY   integral        1     'h0X       
#   PSLVERR  integral        1     'h0        
#   PRDATA   integral        32    'h0xxxxxxxx
#   op       operation_mode  2     WRITE      
# --------------------------------------------
# UVM_INFO base_scoreboard.sv(49) @ 330000: uvm_test_top.e.sb [SCB_DEBUG] Write_q: 9
# UVM_INFO base_scoreboard.sv(50) @ 330000: uvm_test_top.e.sb [SCB WRITE PORT] WRITE PKT
# --------------------------------------------
# Name       Type            Size  Value      
# --------------------------------------------
# item       base_item       -     @669       
#   PWRITE   integral        1     'h0X       
#   PWDATA   integral        32    'he7d5b49f 
#   PADDR    integral        5     'h2        
#   PREADY   integral        1     'h0X       
#   PSLVERR  integral        1     'h0        
#   PRDATA   integral        32    'h0xxxxxxxx
#   op       operation_mode  2     WRITE      
# --------------------------------------------
# UVM_INFO base_scoreboard.sv(49) @ 360000: uvm_test_top.e.sb [SCB_DEBUG] Write_q: 10
# UVM_INFO base_scoreboard.sv(50) @ 360000: uvm_test_top.e.sb [SCB WRITE PORT] WRITE PKT
# --------------------------------------------
# Name       Type            Size  Value      
# --------------------------------------------
# item       base_item       -     @669       
#   PWRITE   integral        1     'h0X       
#   PWDATA   integral        32    'h59d0c832 
#   PADDR    integral        5     'h0        
#   PREADY   integral        1     'h0X       
#   PSLVERR  integral        1     'h0        
#   PRDATA   integral        32    'h0xxxxxxxx
#   op       operation_mode  2     WRITE      
# --------------------------------------------
# UVM_INFO base_scoreboard.sv(49) @ 390000: uvm_test_top.e.sb [SCB_DEBUG] Write_q: 11
# UVM_INFO base_scoreboard.sv(50) @ 390000: uvm_test_top.e.sb [SCB WRITE PORT] WRITE PKT
# --------------------------------------------
# Name       Type            Size  Value      
# --------------------------------------------
# item       base_item       -     @669       
#   PWRITE   integral        1     'h0X       
#   PWDATA   integral        32    'hbd4d13c4 
#   PADDR    integral        5     'h6        
#   PREADY   integral        1     'h0X       
#   PSLVERR  integral        1     'h0        
#   PRDATA   integral        32    'h0xxxxxxxx
#   op       operation_mode  2     WRITE      
# --------------------------------------------
# UVM_INFO base_scoreboard.sv(49) @ 420000: uvm_test_top.e.sb [SCB_DEBUG] Write_q: 12
# UVM_INFO base_scoreboard.sv(50) @ 420000: uvm_test_top.e.sb [SCB WRITE PORT] WRITE PKT
# --------------------------------------------
# Name       Type            Size  Value      
# --------------------------------------------
# item       base_item       -     @669       
#   PWRITE   integral        1     'h0X       
#   PWDATA   integral        32    'h1520cdb  
#   PADDR    integral        5     'h4        
#   PREADY   integral        1     'h0X       
#   PSLVERR  integral        1     'h0        
#   PRDATA   integral        32    'h0xxxxxxxx
#   op       operation_mode  2     WRITE      
# --------------------------------------------
# UVM_INFO base_scoreboard.sv(49) @ 450000: uvm_test_top.e.sb [SCB_DEBUG] Write_q: 13
# UVM_INFO base_scoreboard.sv(50) @ 450000: uvm_test_top.e.sb [SCB WRITE PORT] WRITE PKT
# --------------------------------------------
# Name       Type            Size  Value      
# --------------------------------------------
# item       base_item       -     @669       
#   PWRITE   integral        1     'h0X       
#   PWDATA   integral        32    'had52af9d 
#   PADDR    integral        5     'h1a       
#   PREADY   integral        1     'h0X       
#   PSLVERR  integral        1     'h0        
#   PRDATA   integral        32    'h0xxxxxxxx
#   op       operation_mode  2     WRITE      
# --------------------------------------------
# UVM_INFO base_scoreboard.sv(49) @ 480000: uvm_test_top.e.sb [SCB_DEBUG] Write_q: 14
# UVM_INFO base_scoreboard.sv(50) @ 480000: uvm_test_top.e.sb [SCB WRITE PORT] WRITE PKT
# --------------------------------------------
# Name       Type            Size  Value      
# --------------------------------------------
# item       base_item       -     @669       
#   PWRITE   integral        1     'h0X       
#   PWDATA   integral        32    'hea07ec8f 
#   PADDR    integral        5     'h18       
#   PREADY   integral        1     'h0X       
#   PSLVERR  integral        1     'h0        
#   PRDATA   integral        32    'h0xxxxxxxx
#   op       operation_mode  2     WRITE      
# --------------------------------------------
# UVM_INFO base_scoreboard.sv(49) @ 510000: uvm_test_top.e.sb [SCB_DEBUG] Write_q: 15
# UVM_INFO base_scoreboard.sv(50) @ 510000: uvm_test_top.e.sb [SCB WRITE PORT] WRITE PKT
# --------------------------------------------
# Name       Type            Size  Value      
# --------------------------------------------
# item       base_item       -     @669       
#   PWRITE   integral        1     'h0X       
#   PWDATA   integral        32    'h1c0eaa1a 
#   PADDR    integral        5     'h1e       
#   PREADY   integral        1     'h0X       
#   PSLVERR  integral        1     'h0        
#   PRDATA   integral        32    'h0xxxxxxxx
#   op       operation_mode  2     WRITE      
# --------------------------------------------
# UVM_INFO base_monitor.sv(65) @ 520000: uvm_test_top.e.a.m_r [base_monitor] time
# UVM_INFO base_scoreboard.sv(68) @ 540000: uvm_test_top.e.sb [SCB_DEBUG] Read_q: 1
# UVM_INFO base_scoreboard.sv(69) @ 540000: uvm_test_top.e.sb [SCB READ PORT] READ PKT
# --------------------------------------------
# Name       Type            Size  Value      
# --------------------------------------------
# item       base_item       -     @656       
#   PWRITE   integral        1     'h0X       
#   PWDATA   integral        32    'h0xxxxxxxx
#   PADDR    integral        5     'h13       
#   PREADY   integral        1     'h0X       
#   PSLVERR  integral        1     'h0        
#   PRDATA   integral        32    'h435bd808 
#   op       operation_mode  2     READ       
# --------------------------------------------
# UVM_INFO base_monitor.sv(65) @ 550000: uvm_test_top.e.a.m_r [base_monitor] time
# UVM_INFO base_scoreboard.sv(79) @ 550000: uvm_test_top.e.sb [QUEUE DEBUG] write_q:          15, read_q:           1
# UVM_INFO base_scoreboard.sv(92) @ 550000: uvm_test_top.e.sb [compare] MATCHED
# UVM_INFO base_scoreboard.sv(68) @ 570000: uvm_test_top.e.sb [SCB_DEBUG] Read_q: 1
# UVM_INFO base_scoreboard.sv(69) @ 570000: uvm_test_top.e.sb [SCB READ PORT] READ PKT
# --------------------------------------------
# Name       Type            Size  Value      
# --------------------------------------------
# item       base_item       -     @656       
#   PWRITE   integral        1     'h0X       
#   PWDATA   integral        32    'h0xxxxxxxx
#   PADDR    integral        5     'h11       
#   PREADY   integral        1     'h0X       
#   PSLVERR  integral        1     'h0        
#   PRDATA   integral        32    'hf523fbfd 
#   op       operation_mode  2     READ       
# --------------------------------------------
# UVM_INFO base_monitor.sv(65) @ 580000: uvm_test_top.e.a.m_r [base_monitor] time
# UVM_INFO base_scoreboard.sv(79) @ 580000: uvm_test_top.e.sb [QUEUE DEBUG] write_q:          14, read_q:           1
# UVM_INFO base_scoreboard.sv(92) @ 580000: uvm_test_top.e.sb [compare] MATCHED
# UVM_INFO base_scoreboard.sv(68) @ 600000: uvm_test_top.e.sb [SCB_DEBUG] Read_q: 1
# UVM_INFO base_scoreboard.sv(69) @ 600000: uvm_test_top.e.sb [SCB READ PORT] READ PKT
# --------------------------------------------
# Name       Type            Size  Value      
# --------------------------------------------
# item       base_item       -     @656       
#   PWRITE   integral        1     'h0X       
#   PWDATA   integral        32    'h0xxxxxxxx
#   PADDR    integral        5     'h17       
#   PREADY   integral        1     'h0X       
#   PSLVERR  integral        1     'h0        
#   PRDATA   integral        32    'h42e65b45 
#   op       operation_mode  2     READ       
# --------------------------------------------
# UVM_INFO base_monitor.sv(65) @ 610000: uvm_test_top.e.a.m_r [base_monitor] time
# UVM_INFO base_scoreboard.sv(79) @ 610000: uvm_test_top.e.sb [QUEUE DEBUG] write_q:          13, read_q:           1
# UVM_INFO base_scoreboard.sv(92) @ 610000: uvm_test_top.e.sb [compare] MATCHED
# UVM_INFO base_scoreboard.sv(68) @ 630000: uvm_test_top.e.sb [SCB_DEBUG] Read_q: 1
# UVM_INFO base_scoreboard.sv(69) @ 630000: uvm_test_top.e.sb [SCB READ PORT] READ PKT
# --------------------------------------------
# Name       Type            Size  Value      
# --------------------------------------------
# item       base_item       -     @656       
#   PWRITE   integral        1     'h0X       
#   PWDATA   integral        32    'h0xxxxxxxx
#   PADDR    integral        5     'h15       
#   PREADY   integral        1     'h0X       
#   PSLVERR  integral        1     'h0        
#   PRDATA   integral        32    'h4d4c7266 
#   op       operation_mode  2     READ       
# --------------------------------------------
# UVM_INFO base_monitor.sv(65) @ 640000: uvm_test_top.e.a.m_r [base_monitor] time
# UVM_INFO base_scoreboard.sv(79) @ 640000: uvm_test_top.e.sb [QUEUE DEBUG] write_q:          12, read_q:           1
# UVM_INFO base_scoreboard.sv(92) @ 640000: uvm_test_top.e.sb [compare] MATCHED
# UVM_INFO base_scoreboard.sv(68) @ 660000: uvm_test_top.e.sb [SCB_DEBUG] Read_q: 1
# UVM_INFO base_scoreboard.sv(69) @ 660000: uvm_test_top.e.sb [SCB READ PORT] READ PKT
# --------------------------------------------
# Name       Type            Size  Value      
# --------------------------------------------
# item       base_item       -     @656       
#   PWRITE   integral        1     'h0X       
#   PWDATA   integral        32    'h0xxxxxxxx
#   PADDR    integral        5     'ha        
#   PREADY   integral        1     'h0X       
#   PSLVERR  integral        1     'h0        
#   PRDATA   integral        32    'ha76fa2b4 
#   op       operation_mode  2     READ       
# --------------------------------------------
# UVM_INFO base_monitor.sv(65) @ 670000: uvm_test_top.e.a.m_r [base_monitor] time
# UVM_INFO base_scoreboard.sv(79) @ 670000: uvm_test_top.e.sb [QUEUE DEBUG] write_q:          11, read_q:           1
# UVM_INFO base_scoreboard.sv(92) @ 670000: uvm_test_top.e.sb [compare] MATCHED
# UVM_INFO base_scoreboard.sv(68) @ 690000: uvm_test_top.e.sb [SCB_DEBUG] Read_q: 1
# UVM_INFO base_scoreboard.sv(69) @ 690000: uvm_test_top.e.sb [SCB READ PORT] READ PKT
# --------------------------------------------
# Name       Type            Size  Value      
# --------------------------------------------
# item       base_item       -     @656       
#   PWRITE   integral        1     'h0X       
#   PWDATA   integral        32    'h0xxxxxxxx
#   PADDR    integral        5     'h8        
#   PREADY   integral        1     'h0X       
#   PSLVERR  integral        1     'h0        
#   PRDATA   integral        32    'h47a636d6 
#   op       operation_mode  2     READ       
# --------------------------------------------
# UVM_INFO base_monitor.sv(65) @ 700000: uvm_test_top.e.a.m_r [base_monitor] time
# UVM_INFO base_scoreboard.sv(79) @ 700000: uvm_test_top.e.sb [QUEUE DEBUG] write_q:          10, read_q:           1
# UVM_INFO base_scoreboard.sv(92) @ 700000: uvm_test_top.e.sb [compare] MATCHED
# UVM_INFO base_scoreboard.sv(68) @ 720000: uvm_test_top.e.sb [SCB_DEBUG] Read_q: 1
# UVM_INFO base_scoreboard.sv(69) @ 720000: uvm_test_top.e.sb [SCB READ PORT] READ PKT
# --------------------------------------------
# Name       Type            Size  Value      
# --------------------------------------------
# item       base_item       -     @656       
#   PWRITE   integral        1     'h0X       
#   PWDATA   integral        32    'h0xxxxxxxx
#   PADDR    integral        5     'he        
#   PREADY   integral        1     'h0X       
#   PSLVERR  integral        1     'h0        
#   PRDATA   integral        32    'ha6b7d64a 
#   op       operation_mode  2     READ       
# --------------------------------------------
# UVM_INFO base_monitor.sv(65) @ 730000: uvm_test_top.e.a.m_r [base_monitor] time
# UVM_INFO base_scoreboard.sv(79) @ 730000: uvm_test_top.e.sb [QUEUE DEBUG] write_q:           9, read_q:           1
# UVM_INFO base_scoreboard.sv(92) @ 730000: uvm_test_top.e.sb [compare] MATCHED
# UVM_INFO base_scoreboard.sv(68) @ 750000: uvm_test_top.e.sb [SCB_DEBUG] Read_q: 1
# UVM_INFO base_scoreboard.sv(69) @ 750000: uvm_test_top.e.sb [SCB READ PORT] READ PKT
# --------------------------------------------
# Name       Type            Size  Value      
# --------------------------------------------
# item       base_item       -     @656       
#   PWRITE   integral        1     'h0X       
#   PWDATA   integral        32    'h0xxxxxxxx
#   PADDR    integral        5     'hc        
#   PREADY   integral        1     'h0X       
#   PSLVERR  integral        1     'h0        
#   PRDATA   integral        32    'ha094049b 
#   op       operation_mode  2     READ       
# --------------------------------------------
# UVM_INFO base_monitor.sv(65) @ 760000: uvm_test_top.e.a.m_r [base_monitor] time
# UVM_INFO base_scoreboard.sv(79) @ 760000: uvm_test_top.e.sb [QUEUE DEBUG] write_q:           8, read_q:           1
# UVM_INFO base_scoreboard.sv(92) @ 760000: uvm_test_top.e.sb [compare] MATCHED
# UVM_INFO base_scoreboard.sv(68) @ 780000: uvm_test_top.e.sb [SCB_DEBUG] Read_q: 1
# UVM_INFO base_scoreboard.sv(69) @ 780000: uvm_test_top.e.sb [SCB READ PORT] READ PKT
# --------------------------------------------
# Name       Type            Size  Value      
# --------------------------------------------
# item       base_item       -     @656       
#   PWRITE   integral        1     'h0X       
#   PWDATA   integral        32    'h0xxxxxxxx
#   PADDR    integral        5     'h2        
#   PREADY   integral        1     'h0X       
#   PSLVERR  integral        1     'h0        
#   PRDATA   integral        32    'he7d5b49f 
#   op       operation_mode  2     READ       
# --------------------------------------------
# UVM_INFO base_monitor.sv(65) @ 790000: uvm_test_top.e.a.m_r [base_monitor] time
# UVM_INFO base_scoreboard.sv(79) @ 790000: uvm_test_top.e.sb [QUEUE DEBUG] write_q:           7, read_q:           1
# UVM_INFO base_scoreboard.sv(92) @ 790000: uvm_test_top.e.sb [compare] MATCHED
# UVM_INFO base_scoreboard.sv(68) @ 810000: uvm_test_top.e.sb [SCB_DEBUG] Read_q: 1
# UVM_INFO base_scoreboard.sv(69) @ 810000: uvm_test_top.e.sb [SCB READ PORT] READ PKT
# --------------------------------------------
# Name       Type            Size  Value      
# --------------------------------------------
# item       base_item       -     @656       
#   PWRITE   integral        1     'h0X       
#   PWDATA   integral        32    'h0xxxxxxxx
#   PADDR    integral        5     'h0        
#   PREADY   integral        1     'h0X       
#   PSLVERR  integral        1     'h0        
#   PRDATA   integral        32    'h59d0c832 
#   op       operation_mode  2     READ       
# --------------------------------------------
# UVM_INFO base_monitor.sv(65) @ 820000: uvm_test_top.e.a.m_r [base_monitor] time
# UVM_INFO base_scoreboard.sv(79) @ 820000: uvm_test_top.e.sb [QUEUE DEBUG] write_q:           6, read_q:           1
# UVM_INFO base_scoreboard.sv(92) @ 820000: uvm_test_top.e.sb [compare] MATCHED
# UVM_INFO base_scoreboard.sv(68) @ 840000: uvm_test_top.e.sb [SCB_DEBUG] Read_q: 1
# UVM_INFO base_scoreboard.sv(69) @ 840000: uvm_test_top.e.sb [SCB READ PORT] READ PKT
# --------------------------------------------
# Name       Type            Size  Value      
# --------------------------------------------
# item       base_item       -     @656       
#   PWRITE   integral        1     'h0X       
#   PWDATA   integral        32    'h0xxxxxxxx
#   PADDR    integral        5     'h6        
#   PREADY   integral        1     'h0X       
#   PSLVERR  integral        1     'h0        
#   PRDATA   integral        32    'hbd4d13c4 
#   op       operation_mode  2     READ       
# --------------------------------------------
# UVM_INFO base_monitor.sv(65) @ 850000: uvm_test_top.e.a.m_r [base_monitor] time
# UVM_INFO base_scoreboard.sv(79) @ 850000: uvm_test_top.e.sb [QUEUE DEBUG] write_q:           5, read_q:           1
# UVM_INFO base_scoreboard.sv(92) @ 850000: uvm_test_top.e.sb [compare] MATCHED
# UVM_INFO base_scoreboard.sv(68) @ 870000: uvm_test_top.e.sb [SCB_DEBUG] Read_q: 1
# UVM_INFO base_scoreboard.sv(69) @ 870000: uvm_test_top.e.sb [SCB READ PORT] READ PKT
# --------------------------------------------
# Name       Type            Size  Value      
# --------------------------------------------
# item       base_item       -     @656       
#   PWRITE   integral        1     'h0X       
#   PWDATA   integral        32    'h0xxxxxxxx
#   PADDR    integral        5     'h4        
#   PREADY   integral        1     'h0X       
#   PSLVERR  integral        1     'h0        
#   PRDATA   integral        32    'h1520cdb  
#   op       operation_mode  2     READ       
# --------------------------------------------
# UVM_INFO base_monitor.sv(65) @ 880000: uvm_test_top.e.a.m_r [base_monitor] time
# UVM_INFO base_scoreboard.sv(79) @ 880000: uvm_test_top.e.sb [QUEUE DEBUG] write_q:           4, read_q:           1
# UVM_INFO base_scoreboard.sv(92) @ 880000: uvm_test_top.e.sb [compare] MATCHED
# UVM_INFO base_scoreboard.sv(68) @ 900000: uvm_test_top.e.sb [SCB_DEBUG] Read_q: 1
# UVM_INFO base_scoreboard.sv(69) @ 900000: uvm_test_top.e.sb [SCB READ PORT] READ PKT
# --------------------------------------------
# Name       Type            Size  Value      
# --------------------------------------------
# item       base_item       -     @656       
#   PWRITE   integral        1     'h0X       
#   PWDATA   integral        32    'h0xxxxxxxx
#   PADDR    integral        5     'h1a       
#   PREADY   integral        1     'h0X       
#   PSLVERR  integral        1     'h0        
#   PRDATA   integral        32    'had52af9d 
#   op       operation_mode  2     READ       
# --------------------------------------------
# UVM_INFO base_monitor.sv(65) @ 910000: uvm_test_top.e.a.m_r [base_monitor] time
# UVM_INFO base_scoreboard.sv(79) @ 910000: uvm_test_top.e.sb [QUEUE DEBUG] write_q:           3, read_q:           1
# UVM_INFO base_scoreboard.sv(92) @ 910000: uvm_test_top.e.sb [compare] MATCHED
# UVM_INFO base_scoreboard.sv(68) @ 930000: uvm_test_top.e.sb [SCB_DEBUG] Read_q: 1
# UVM_INFO base_scoreboard.sv(69) @ 930000: uvm_test_top.e.sb [SCB READ PORT] READ PKT
# --------------------------------------------
# Name       Type            Size  Value      
# --------------------------------------------
# item       base_item       -     @656       
#   PWRITE   integral        1     'h0X       
#   PWDATA   integral        32    'h0xxxxxxxx
#   PADDR    integral        5     'h18       
#   PREADY   integral        1     'h0X       
#   PSLVERR  integral        1     'h0        
#   PRDATA   integral        32    'hea07ec8f 
#   op       operation_mode  2     READ       
# --------------------------------------------
# UVM_INFO base_monitor.sv(65) @ 940000: uvm_test_top.e.a.m_r [base_monitor] time
# UVM_INFO base_scoreboard.sv(79) @ 940000: uvm_test_top.e.sb [QUEUE DEBUG] write_q:           2, read_q:           1
# UVM_INFO base_scoreboard.sv(92) @ 940000: uvm_test_top.e.sb [compare] MATCHED
# UVM_INFO base_scoreboard.sv(68) @ 960000: uvm_test_top.e.sb [SCB_DEBUG] Read_q: 1
# UVM_INFO base_scoreboard.sv(69) @ 960000: uvm_test_top.e.sb [SCB READ PORT] READ PKT
# --------------------------------------------
# Name       Type            Size  Value      
# --------------------------------------------
# item       base_item       -     @656       
#   PWRITE   integral        1     'h0X       
#   PWDATA   integral        32    'h0xxxxxxxx
#   PADDR    integral        5     'h1e       
#   PREADY   integral        1     'h0X       
#   PSLVERR  integral        1     'h0        
#   PRDATA   integral        32    'h1c0eaa1a 
#   op       operation_mode  2     READ       
# --------------------------------------------
# UVM_INFO verilog_src/uvm-1.1d/src/base/uvm_objection.svh(1267) @ 960000: reporter [TEST_DONE] 'run' phase is ready to proceed to the 'extract' phase
# UVM_INFO base_scoreboard.sv(115) @ 960000: uvm_test_top.e.sb [base_scoreboard] ---------------------------------------
# UVM_INFO base_scoreboard.sv(116) @ 960000: uvm_test_top.e.sb [base_scoreboard] ----       TEST PASS COUNTS  14     ----
# UVM_INFO base_scoreboard.sv(118) @ 960000: uvm_test_top.e.sb [base_scoreboard] ---------------------------------------
# 
# --- UVM Report Summary ---
# 
# ** Report counts by severity
# UVM_INFO :  138
# UVM_WARNING :    0
# UVM_ERROR :    0
# UVM_FATAL :    0
# ** Report counts by id
# [QUEUE DEBUG]    14
# [Questa UVM]     3
# [RNTST]     1
# [SCB READ PORT]    20
# [SCB WRITE PORT]    20
# [SCB_DEBUG]    30
# [TEST_DONE]     1
# [UVMTOP]     1
# [base_driver]     5
# [base_monitor]    25
# [base_scoreboard]     3
# [build_phase]     1
# [compare]    14
# ** Note: $finish    : /home/tai/Desktop/Questa/questasim/linux_x86_64/../verilog_src/uvm-1.1d/src/base/uvm_root.svh(430)
#    Time: 960 ns  Iteration: 62  Instance: /top
# End time: 10:27:46 on Sep 20,2025, Elapsed time: 0:00:08
# Errors: 0, Warnings: 3
